<Qucs Dataset 24.2.1>
<indep time 476>
0.000000000000e+00
1.000000000000e-11
2.000000000000e-11
4.000000000000e-11
8.000000000000e-11
1.600000000000e-10
3.200000000000e-10
6.400000000000e-10
1.000000000000e-09
1.064000000000e-09
1.192000000000e-09
1.448000000000e-09
1.960000000000e-09
2.000000000000e-09
2.080000000000e-09
2.240000000000e-09
2.560000000000e-09
3.200000000000e-09
4.480000000000e-09
7.040000000000e-09
1.216000000000e-08
2.240000000000e-08
4.288000000000e-08
8.384000000000e-08
1.657600000000e-07
3.296000000000e-07
6.572800000000e-07
1.312640000000e-06
2.623360000000e-06
5.244800000000e-06
1.048768000000e-05
2.097344000000e-05
4.194496000000e-05
8.388800000000e-05
1.341393000000e-04
1.843906000000e-04
2.346419000000e-04
2.848932000000e-04
3.351445000000e-04
3.853958000000e-04
4.356471000000e-04
4.858984000000e-04
5.361497000000e-04
5.864010000000e-04
6.366523000000e-04
6.869036000000e-04
7.371549000000e-04
7.874062000000e-04
8.376575000000e-04
8.879088000000e-04
9.381601000000e-04
9.884114000000e-04
1.000000000000e-03
1.000000100000e-03
1.000000300000e-03
1.000000700000e-03
1.000001000000e-03
1.000001080000e-03
1.000001240000e-03
1.000001560000e-03
1.000002000000e-03
1.000002064000e-03
1.000002192000e-03
1.000002448000e-03
1.000002960000e-03
1.000003984000e-03
1.000006032000e-03
1.000010128000e-03
1.000018320000e-03
1.000034704000e-03
1.000067472000e-03
1.000133008000e-03
1.000264080000e-03
1.000526224000e-03
1.001050512000e-03
1.002099088000e-03
1.004196240000e-03
1.008390543999e-03
1.016779151998e-03
1.033556367997e-03
1.067110799994e-03
1.117362099994e-03
1.167613399994e-03
1.217864699994e-03
1.268115999994e-03
1.318367299994e-03
1.368618599994e-03
1.418869899994e-03
1.469121199994e-03
1.519372499994e-03
1.569623799994e-03
1.619875099994e-03
1.670126399994e-03
1.720377699994e-03
1.770628999994e-03
1.820880299994e-03
1.871131599994e-03
1.921382899994e-03
1.971634199994e-03
2.000000000000e-03
2.000000100000e-03
2.000000300000e-03
2.000000700000e-03
2.000001000000e-03
2.000001080000e-03
2.000001240000e-03
2.000001560000e-03
2.000002000000e-03
2.000002064000e-03
2.000002192000e-03
2.000002448000e-03
2.000002960000e-03
2.000003984000e-03
2.000006032000e-03
2.000010128000e-03
2.000018320000e-03
2.000034704000e-03
2.000067472000e-03
2.000133008000e-03
2.000264080000e-03
2.000526224000e-03
2.001050512000e-03
2.002099088000e-03
2.004196240000e-03
2.008390543999e-03
2.016779151998e-03
2.033556367997e-03
2.067110799994e-03
2.117362099994e-03
2.167613399994e-03
2.217864699994e-03
2.268115999994e-03
2.318367299994e-03
2.368618599994e-03
2.418869899994e-03
2.469121199994e-03
2.519372499994e-03
2.569623799994e-03
2.619875099994e-03
2.670126399994e-03
2.720377699994e-03
2.770628999994e-03
2.820880299994e-03
2.871131599994e-03
2.921382899994e-03
2.971634199994e-03
3.000000000000e-03
3.000000100000e-03
3.000000300000e-03
3.000000700000e-03
3.000001000000e-03
3.000001080000e-03
3.000001240000e-03
3.000001560000e-03
3.000002000000e-03
3.000002064000e-03
3.000002192000e-03
3.000002448000e-03
3.000002960000e-03
3.000003984000e-03
3.000006032000e-03
3.000010128000e-03
3.000018320000e-03
3.000034704000e-03
3.000067472000e-03
3.000133008000e-03
3.000264080000e-03
3.000526224000e-03
3.001050512000e-03
3.002099088000e-03
3.004196240000e-03
3.008390543999e-03
3.016779151998e-03
3.033556367997e-03
3.067110799994e-03
3.117362099994e-03
3.167613399994e-03
3.217864699994e-03
3.268115999994e-03
3.318367299994e-03
3.368618599994e-03
3.418869899994e-03
3.469121199994e-03
3.519372499994e-03
3.569623799994e-03
3.619875099994e-03
3.670126399994e-03
3.720377699994e-03
3.770628999994e-03
3.820880299994e-03
3.871131599994e-03
3.921382899994e-03
3.971634199994e-03
4.000000000000e-03
4.000000100000e-03
4.000000300000e-03
4.000000700000e-03
4.000001000000e-03
4.000001080000e-03
4.000001240000e-03
4.000001560000e-03
4.000002000000e-03
4.000002064000e-03
4.000002192000e-03
4.000002448000e-03
4.000002960000e-03
4.000003984000e-03
4.000006032000e-03
4.000010128000e-03
4.000018320000e-03
4.000034704000e-03
4.000067472000e-03
4.000133008000e-03
4.000264080000e-03
4.000526224000e-03
4.001050511999e-03
4.002099087999e-03
4.004196239998e-03
4.008390543996e-03
4.016779151991e-03
4.033556367982e-03
4.067110799965e-03
4.117362099965e-03
4.167613399965e-03
4.217864699965e-03
4.268115999965e-03
4.318367299965e-03
4.368618599965e-03
4.418869899965e-03
4.469121199965e-03
4.519372499965e-03
4.569623799965e-03
4.619875099965e-03
4.670126399965e-03
4.720377699965e-03
4.770628999965e-03
4.820880299965e-03
4.871131599965e-03
4.921382899965e-03
4.971634199965e-03
5.000000000000e-03
5.000000100000e-03
5.000000300000e-03
5.000000700000e-03
5.000001000000e-03
5.000001080000e-03
5.000001240000e-03
5.000001560000e-03
5.000002000000e-03
5.000002064000e-03
5.000002192000e-03
5.000002448000e-03
5.000002960000e-03
5.000003984000e-03
5.000006032000e-03
5.000010128000e-03
5.000018320000e-03
5.000034704000e-03
5.000067472000e-03
5.000133008000e-03
5.000264080000e-03
5.000526224000e-03
5.001050512000e-03
5.002099088001e-03
5.004196240001e-03
5.008390544003e-03
5.016779152006e-03
5.033556368011e-03
5.067110800023e-03
5.117362100023e-03
5.167613400023e-03
5.217864700023e-03
5.268116000023e-03
5.318367300023e-03
5.368618600023e-03
5.418869900023e-03
5.469121200023e-03
5.519372500023e-03
5.569623800023e-03
5.619875100023e-03
5.670126400023e-03
5.720377700023e-03
5.770629000023e-03
5.820880300023e-03
5.871131600023e-03
5.921382900023e-03
5.971634200023e-03
6.000000000000e-03
6.000000100000e-03
6.000000300000e-03
6.000000700000e-03
6.000001000000e-03
6.000001080000e-03
6.000001240000e-03
6.000001560000e-03
6.000002000000e-03
6.000002064000e-03
6.000002192000e-03
6.000002448000e-03
6.000002960000e-03
6.000003984000e-03
6.000006032000e-03
6.000010128000e-03
6.000018320000e-03
6.000034704000e-03
6.000067472000e-03
6.000133008000e-03
6.000264080000e-03
6.000526224000e-03
6.001050511999e-03
6.002099087999e-03
6.004196239998e-03
6.008390543996e-03
6.016779151991e-03
6.033556367982e-03
6.067110799965e-03
6.117362099965e-03
6.167613399965e-03
6.217864699965e-03
6.268115999965e-03
6.318367299965e-03
6.368618599965e-03
6.418869899965e-03
6.469121199965e-03
6.519372499965e-03
6.569623799965e-03
6.619875099965e-03
6.670126399965e-03
6.720377699965e-03
6.770628999965e-03
6.820880299965e-03
6.871131599965e-03
6.921382899965e-03
6.971634199965e-03
7.000000000000e-03
7.000000100000e-03
7.000000300000e-03
7.000000700000e-03
7.000001000000e-03
7.000001080000e-03
7.000001240000e-03
7.000001560000e-03
7.000002000000e-03
7.000002064000e-03
7.000002192000e-03
7.000002448000e-03
7.000002960000e-03
7.000003984000e-03
7.000006032000e-03
7.000010128000e-03
7.000018320000e-03
7.000034704000e-03
7.000067472000e-03
7.000133008000e-03
7.000264080000e-03
7.000526224000e-03
7.001050512000e-03
7.002099088001e-03
7.004196240001e-03
7.008390544003e-03
7.016779152006e-03
7.033556368011e-03
7.067110800023e-03
7.117362100023e-03
7.167613400023e-03
7.217864700023e-03
7.268116000023e-03
7.318367300023e-03
7.368618600023e-03
7.418869900023e-03
7.469121200023e-03
7.519372500023e-03
7.569623800023e-03
7.619875100023e-03
7.670126400023e-03
7.720377700023e-03
7.770629000023e-03
7.820880300023e-03
7.871131600023e-03
7.921382900023e-03
7.971634200023e-03
8.000000000000e-03
8.000000100000e-03
8.000000300000e-03
8.000000700000e-03
8.000001000000e-03
8.000001080000e-03
8.000001240000e-03
8.000001560000e-03
8.000002000000e-03
8.000002064000e-03
8.000002192000e-03
8.000002448000e-03
8.000002960000e-03
8.000003984000e-03
8.000006032000e-03
8.000010128000e-03
8.000018320000e-03
8.000034704000e-03
8.000067472000e-03
8.000133008000e-03
8.000264080000e-03
8.000526224000e-03
8.001050511999e-03
8.002099087999e-03
8.004196239998e-03
8.008390543996e-03
8.016779151991e-03
8.033556367982e-03
8.067110799965e-03
8.117362099965e-03
8.167613399965e-03
8.217864699965e-03
8.268115999965e-03
8.318367299965e-03
8.368618599965e-03
8.418869899965e-03
8.469121199965e-03
8.519372499965e-03
8.569623799965e-03
8.619875099965e-03
8.670126399965e-03
8.720377699965e-03
8.770628999965e-03
8.820880299965e-03
8.871131599965e-03
8.921382899965e-03
8.971634199965e-03
9.000000000000e-03
9.000000100000e-03
9.000000300000e-03
9.000000700000e-03
9.000001000000e-03
9.000001080000e-03
9.000001240000e-03
9.000001560000e-03
9.000002000000e-03
9.000002064000e-03
9.000002192000e-03
9.000002448000e-03
9.000002960000e-03
9.000003984000e-03
9.000006032000e-03
9.000010128000e-03
9.000018320000e-03
9.000034704000e-03
9.000067472000e-03
9.000133008000e-03
9.000264080000e-03
9.000526224000e-03
9.001050511999e-03
9.002099087999e-03
9.004196239998e-03
9.008390543996e-03
9.016779151991e-03
9.033556367982e-03
9.067110799965e-03
9.117362099965e-03
9.167613399965e-03
9.217864699965e-03
9.268115999965e-03
9.318367299965e-03
9.368618599965e-03
9.418869899965e-03
9.469121199965e-03
9.519372499965e-03
9.569623799965e-03
9.619875099965e-03
9.670126399965e-03
9.720377699965e-03
9.770628999965e-03
9.820880299965e-03
9.871131599965e-03
9.921382899965e-03
9.971634199965e-03
1.000000000000e-02
</indep>
<dep tran.v(vin1) time>
0.000000000000e+00
1.000000000000e-08
2.000000000000e-08
4.000000000000e-08
8.000000000000e-08
1.600000000000e-07
3.200000000000e-07
6.400000000000e-07
1.000000000000e-06
1.064000000000e-06
1.192000000000e-06
1.448000000000e-06
1.960000000000e-06
2.000000000000e-06
2.080000000000e-06
2.240000000000e-06
2.560000000000e-06
3.200000000000e-06
4.480000000000e-06
7.040000000000e-06
1.216000000000e-05
2.240000000000e-05
4.288000000000e-05
8.384000000000e-05
1.657600000000e-04
3.296000000000e-04
6.572800000000e-04
1.312640000000e-03
2.623360000000e-03
5.244800000000e-03
1.048768000000e-02
2.097344000000e-02
4.194496000000e-02
8.388800000000e-02
1.341393000000e-01
1.843906000000e-01
2.346419000000e-01
2.848932000000e-01
3.351445000000e-01
3.853958000000e-01
4.356471000000e-01
4.858984000000e-01
5.361497000000e-01
5.864010000000e-01
6.366523000000e-01
6.869036000000e-01
7.371549000000e-01
7.874062000000e-01
8.376575000000e-01
8.879088000000e-01
9.381601000000e-01
9.884114000000e-01
1.000000000000e+00
1.000000000341e-07
3.000000001023e-07
7.000000000219e-07
9.999999999073e-07
1.079999999805e-06
1.239999999816e-06
1.559999999838e-06
2.000000000031e-06
2.063999999993e-06
2.191999999915e-06
2.447999999976e-06
2.959999999882e-06
3.983999999693e-06
6.031999999533e-06
1.012799999921e-05
1.831999999835e-05
3.470399999685e-05
6.747199999386e-05
1.330079999879e-04
2.640799999756e-04
5.262239999514e-04
1.050511999903e-03
2.099087999806e-03
4.196239999611e-03
8.390543999222e-03
1.677915199845e-02
3.355636799689e-02
6.711079999378e-02
1.173620999938e-01
1.676133999938e-01
2.178646999938e-01
2.681159999938e-01
3.183672999938e-01
3.686185999938e-01
4.188698999938e-01
4.691211999938e-01
5.193724999938e-01
5.696237999938e-01
6.198750999938e-01
6.701263999938e-01
7.203776999938e-01
7.706289999938e-01
8.208802999938e-01
8.711315999938e-01
9.213828999938e-01
9.716341999938e-01
0.000000000000e+00
1.000000000341e-07
3.000000001023e-07
7.000000002387e-07
9.999999999073e-07
1.080000000021e-06
1.239999999816e-06
1.559999999838e-06
1.999999999815e-06
2.063999999993e-06
2.191999999915e-06
2.447999999759e-06
2.959999999882e-06
3.983999999693e-06
6.031999999316e-06
1.012799999900e-05
1.831999999835e-05
3.470399999664e-05
6.747199999364e-05
1.330079999876e-04
2.640799999756e-04
5.262239999512e-04
1.050511999903e-03
2.099087999806e-03
4.196239999611e-03
8.390543999222e-03
1.677915199844e-02
3.355636799689e-02
6.711079999378e-02
1.173620999938e-01
1.676133999938e-01
2.178646999938e-01
2.681159999938e-01
3.183672999938e-01
3.686185999938e-01
4.188698999938e-01
4.691211999938e-01
5.193724999938e-01
5.696237999938e-01
6.198750999938e-01
6.701263999938e-01
7.203776999938e-01
7.706289999938e-01
8.208802999938e-01
8.711315999938e-01
9.213828999938e-01
9.716341999938e-01
0.000000000000e+00
1.000000000341e-07
3.000000001023e-07
7.000000002387e-07
9.999999999073e-07
1.080000000021e-06
1.239999999816e-06
1.559999999838e-06
1.999999999815e-06
2.063999999993e-06
2.191999999915e-06
2.447999999759e-06
2.959999999882e-06
3.983999999693e-06
6.031999999316e-06
1.012799999900e-05
1.831999999835e-05
3.470399999664e-05
6.747199999364e-05
1.330079999876e-04
2.640799999756e-04
5.262239999512e-04
1.050511999903e-03
2.099087999806e-03
4.196239999611e-03
8.390543999222e-03
1.677915199844e-02
3.355636799689e-02
6.711079999378e-02
1.173620999938e-01
1.676133999938e-01
2.178646999938e-01
2.681159999938e-01
3.183672999938e-01
3.686185999938e-01
4.188698999938e-01
4.691211999938e-01
5.193724999938e-01
5.696237999938e-01
6.198750999938e-01
6.701263999938e-01
7.203776999938e-01
7.706289999938e-01
8.208802999938e-01
8.711315999938e-01
9.213828999938e-01
9.716341999938e-01
0.000000000000e+00
9.999999960042e-08
2.999999996686e-07
6.999999998050e-07
9.999999994736e-07
1.079999999154e-06
1.239999999382e-06
1.559999998971e-06
1.999999999815e-06
2.063999999559e-06
2.191999999915e-06
2.447999999759e-06
2.959999999448e-06
3.983999998826e-06
6.031999997581e-06
1.012799999509e-05
1.831999999098e-05
3.470399998276e-05
6.747199996545e-05
1.330079999308e-04
2.640799998616e-04
5.262239997240e-04
1.050511999448e-03
2.099087998896e-03
4.196239997792e-03
8.390543995584e-03
1.677915199117e-02
3.355636798234e-02
6.711079996468e-02
1.173620999647e-01
1.676133999647e-01
2.178646999647e-01
2.681159999647e-01
3.183672999647e-01
3.686185999647e-01
4.188698999647e-01
4.691211999647e-01
5.193724999647e-01
5.696237999647e-01
6.198750999647e-01
6.701263999647e-01
7.203776999647e-01
7.706289999647e-01
8.208802999647e-01
8.711315999647e-01
9.213828999647e-01
9.716341999647e-01
0.000000000000e+00
1.000000004678e-07
3.000000005360e-07
7.000000006724e-07
1.000000000341e-06
1.080000000021e-06
1.240000000249e-06
1.560000000705e-06
1.999999999815e-06
2.063999999559e-06
2.191999999915e-06
2.447999999759e-06
2.960000000315e-06
3.984000000561e-06
6.032000001051e-06
1.012800000203e-05
1.832000000486e-05
3.470400001052e-05
6.747200002183e-05
1.330080000445e-04
2.640800000888e-04
5.262240001785e-04
1.050512000357e-03
2.099088000715e-03
4.196240001430e-03
8.390544002861e-03
1.677915200572e-02
3.355636801144e-02
6.711080002288e-02
1.173621000229e-01
1.676134000229e-01
2.178647000229e-01
2.681160000229e-01
3.183673000229e-01
3.686186000229e-01
4.188699000229e-01
4.691212000229e-01
5.193725000229e-01
5.696238000229e-01
6.198751000229e-01
6.701264000229e-01
7.203777000229e-01
7.706290000229e-01
8.208803000229e-01
8.711316000229e-01
9.213829000229e-01
9.716342000229e-01
0.000000000000e+00
9.999999960042e-08
2.999999996686e-07
6.999999998050e-07
9.999999994736e-07
1.079999999154e-06
1.239999999382e-06
1.559999998971e-06
1.999999999815e-06
2.063999999559e-06
2.191999999915e-06
2.447999999759e-06
2.959999999448e-06
3.983999998826e-06
6.031999997581e-06
1.012799999509e-05
1.831999999098e-05
3.470399998276e-05
6.747199996545e-05
1.330079999308e-04
2.640799998616e-04
5.262239997240e-04
1.050511999448e-03
2.099087998896e-03
4.196239997792e-03
8.390543995584e-03
1.677915199117e-02
3.355636798234e-02
6.711079996468e-02
1.173620999647e-01
1.676133999647e-01
2.178646999647e-01
2.681159999647e-01
3.183672999647e-01
3.686185999647e-01
4.188698999647e-01
4.691211999647e-01
5.193724999647e-01
5.696237999647e-01
6.198750999647e-01
6.701263999647e-01
7.203776999647e-01
7.706289999647e-01
8.208802999647e-01
8.711315999647e-01
9.213828999647e-01
9.716341999647e-01
0.000000000000e+00
1.000000004678e-07
3.000000005360e-07
7.000000006724e-07
1.000000000341e-06
1.080000000021e-06
1.240000000249e-06
1.560000000705e-06
1.999999999815e-06
2.063999999559e-06
2.191999999915e-06
2.447999999759e-06
2.960000000315e-06
3.984000000561e-06
6.032000001051e-06
1.012800000203e-05
1.832000000486e-05
3.470400001052e-05
6.747200002183e-05
1.330080000445e-04
2.640800000888e-04
5.262240001785e-04
1.050512000357e-03
2.099088000715e-03
4.196240001430e-03
8.390544002861e-03
1.677915200572e-02
3.355636801144e-02
6.711080002288e-02
1.173621000229e-01
1.676134000229e-01
2.178647000229e-01
2.681160000229e-01
3.183673000229e-01
3.686186000229e-01
4.188699000229e-01
4.691212000229e-01
5.193725000229e-01
5.696238000229e-01
6.198751000229e-01
6.701264000229e-01
7.203777000229e-01
7.706290000229e-01
8.208803000229e-01
8.711316000229e-01
9.213829000229e-01
9.716342000229e-01
0.000000000000e+00
9.999999960042e-08
2.999999988013e-07
6.999999989377e-07
9.999999994736e-07
1.079999999154e-06
1.239999998515e-06
1.559999998971e-06
2.000000000682e-06
2.064000000426e-06
2.191999999915e-06
2.448000000627e-06
2.960000000315e-06
3.983999999693e-06
6.031999998449e-06
1.012799999596e-05
1.831999999098e-05
3.470399998276e-05
6.747199996632e-05
1.330079999317e-04
2.640799998625e-04
5.262239997240e-04
1.050511999449e-03
2.099087998897e-03
4.196239997792e-03
8.390543995585e-03
1.677915199117e-02
3.355636798234e-02
6.711079996468e-02
1.173620999647e-01
1.676133999647e-01
2.178646999647e-01
2.681159999647e-01
3.183672999647e-01
3.686185999647e-01
4.188698999647e-01
4.691211999647e-01
5.193724999647e-01
5.696237999647e-01
6.198750999647e-01
6.701263999647e-01
7.203776999647e-01
7.706289999647e-01
8.208802999647e-01
8.711315999647e-01
9.213828999647e-01
9.716341999647e-01
0.000000000000e+00
9.999999960042e-08
2.999999988013e-07
6.999999989377e-07
9.999999994736e-07
1.079999999154e-06
1.239999998515e-06
1.559999998971e-06
1.999999998947e-06
2.063999998692e-06
2.191999998180e-06
2.447999998892e-06
2.959999998581e-06
3.983999997959e-06
6.031999996714e-06
1.012799999422e-05
1.831999998925e-05
3.470399998103e-05
6.747199996458e-05
1.330079999300e-04
2.640799998607e-04
5.262239997222e-04
1.050511999447e-03
2.099087998895e-03
4.196239997790e-03
8.390543995583e-03
1.677915199117e-02
3.355636798234e-02
6.711079996467e-02
1.173620999647e-01
1.676133999647e-01
2.178646999647e-01
2.681159999647e-01
3.183672999647e-01
3.686185999647e-01
4.188698999647e-01
4.691211999647e-01
5.193724999647e-01
5.696237999647e-01
6.198750999647e-01
6.701263999647e-01
7.203776999647e-01
7.706289999647e-01
8.208802999647e-01
8.711315999647e-01
9.213828999647e-01
9.716341999647e-01
0.000000000000e+00
</dep>
<dep tran.v(vin2) time>
0.000000000000e+00
1.000000000000e-08
2.000000000000e-08
4.000000000000e-08
8.000000000000e-08
1.600000000000e-07
3.200000000000e-07
6.400000000000e-07
1.000000000000e-06
1.064000000000e-06
1.192000000000e-06
1.448000000000e-06
1.960000000000e-06
2.000000000000e-06
2.080000000000e-06
2.240000000000e-06
2.560000000000e-06
3.200000000000e-06
4.480000000000e-06
7.040000000000e-06
1.216000000000e-05
2.240000000000e-05
4.288000000000e-05
8.384000000000e-05
1.657600000000e-04
3.296000000000e-04
6.572800000000e-04
1.312640000000e-03
2.623360000000e-03
5.244800000000e-03
1.048768000000e-02
2.097344000000e-02
4.194496000000e-02
8.388800000000e-02
1.341393000000e-01
1.843906000000e-01
2.346419000000e-01
2.848932000000e-01
3.351445000000e-01
3.853958000000e-01
4.356471000000e-01
4.858984000000e-01
5.361497000000e-01
5.864010000000e-01
6.366523000000e-01
6.869036000000e-01
7.371549000000e-01
7.874062000000e-01
8.376575000000e-01
8.879088000000e-01
9.381601000000e-01
9.884114000000e-01
1.000000000000e+00
1.000000000000e+00
1.000000000000e+00
1.000000000000e+00
1.000000000000e+00
9.999999200000e-01
9.999997600000e-01
9.999994400000e-01
9.999990000000e-01
9.999989360000e-01
9.999988080000e-01
9.999985520000e-01
9.999980400000e-01
9.999970160000e-01
9.999949680000e-01
9.999908720000e-01
9.999826800000e-01
9.999662960000e-01
9.999335280000e-01
9.998679920000e-01
9.997369200000e-01
9.994747760000e-01
9.989504880001e-01
9.979019120002e-01
9.958047600004e-01
9.916104560008e-01
9.832218480016e-01
9.664446320031e-01
9.328902000062e-01
8.826389000062e-01
8.323876000062e-01
7.821363000062e-01
7.318850000062e-01
6.816337000062e-01
6.313824000062e-01
5.811311000062e-01
5.308798000062e-01
4.806285000062e-01
4.303772000062e-01
3.801259000062e-01
3.298746000062e-01
2.796233000062e-01
2.293720000062e-01
