<Qucs Dataset 24.2.1>
<indep time 211>
0.000000000000e+00
5.025130000000e-05
5.449797740506e-05
6.299133221518e-05
7.997804183542e-05
1.139514610759e-04
1.818982995568e-04
3.177919765188e-04
5.895793304426e-04
1.133154038290e-03
2.220303453985e-03
4.394602285376e-03
7.673181959253e-03
1.226693856967e-02
1.729206856967e-02
2.231719856967e-02
2.734232856967e-02
3.236745856967e-02
3.739258856967e-02
4.241771856967e-02
4.744284856967e-02
5.246797856967e-02
5.749310856967e-02
6.251823856967e-02
6.754336856967e-02
7.256849856967e-02
7.759362856967e-02
8.261875856967e-02
8.764388856967e-02
9.266901856967e-02
9.769414856967e-02
1.027192785697e-01
1.077444085697e-01
1.127695385697e-01
1.177946685697e-01
1.228197985697e-01
1.278449285697e-01
1.328700585697e-01
1.378951885697e-01
1.429203185697e-01
1.479454485697e-01
1.529705785697e-01
1.579957085697e-01
1.630208385697e-01
1.680459685697e-01
1.730710985697e-01
1.780962285697e-01
1.831213585697e-01
1.881464885697e-01
1.931716185697e-01
1.981967485697e-01
2.032218785697e-01
2.082470085697e-01
2.132721385697e-01
2.182972685697e-01
2.233223985697e-01
2.283475285697e-01
2.333726585697e-01
2.383977885697e-01
2.434229185697e-01
2.484480485697e-01
2.534731785697e-01
2.584983085697e-01
2.635234385697e-01
2.685485685697e-01
2.735736985697e-01
2.785988285697e-01
2.836239585697e-01
2.886490885697e-01
2.936742185697e-01
2.986993485697e-01
3.037244785697e-01
3.087496085697e-01
3.137747385697e-01
3.187998685697e-01
3.238249985697e-01
3.288501285697e-01
3.338752585697e-01
3.389003885697e-01
3.439255185697e-01
3.489506485697e-01
3.539757785697e-01
3.590009085697e-01
3.640260385697e-01
3.690511685697e-01
3.740762985697e-01
3.791014285697e-01
3.841265585697e-01
3.891516885697e-01
3.941768185697e-01
3.992019485697e-01
4.042270785697e-01
4.092522085697e-01
4.142773385697e-01
4.193024685697e-01
4.243275985697e-01
4.293527285697e-01
4.343778585697e-01
4.394029885697e-01
4.444281185697e-01
4.494532485697e-01
4.544783785697e-01
4.595035085697e-01
4.645286385697e-01
4.695537685697e-01
4.745788985697e-01
4.796040285697e-01
4.846291585697e-01
4.896542885697e-01
4.946794185697e-01
4.997045485697e-01
5.047296785697e-01
5.097548085697e-01
5.147799385697e-01
5.198050685697e-01
5.248301985697e-01
5.298553285697e-01
5.348804585697e-01
5.399055885697e-01
5.449307185697e-01
5.499558485697e-01
5.549809785697e-01
5.600061085697e-01
5.650312385697e-01
5.700563685697e-01
5.750814985697e-01
5.801066285697e-01
5.851317585697e-01
5.901568885697e-01
5.951820185697e-01
6.002071485697e-01
6.052322785697e-01
6.102574085697e-01
6.152825385697e-01
6.203076685697e-01
6.253327985697e-01
6.303579285697e-01
6.353830585697e-01
6.404081885697e-01
6.454333185697e-01
6.504584485697e-01
6.554835785697e-01
6.605087085697e-01
6.655338385697e-01
6.705589685697e-01
6.755840985697e-01
6.806092285697e-01
6.856343585697e-01
6.906594885697e-01
6.956846185697e-01
7.007097485697e-01
7.057348785697e-01
7.107600085697e-01
7.157851385697e-01
7.208102685697e-01
7.258353985697e-01
7.308605285697e-01
7.358856585697e-01
7.409107885697e-01
7.459359185697e-01
7.509610485697e-01
7.559861785697e-01
7.610113085697e-01
7.660364385697e-01
7.710615685697e-01
7.760866985697e-01
7.811118285697e-01
7.861369585697e-01
7.911620885697e-01
7.961872185697e-01
8.012123485697e-01
8.062374785697e-01
8.112626085697e-01
8.162877385697e-01
8.213128685697e-01
8.263379985697e-01
8.313631285697e-01
8.363882585697e-01
8.414133885697e-01
8.464385185697e-01
8.514636485697e-01
8.564887785697e-01
8.615139085697e-01
8.665390385697e-01
8.715641685697e-01
8.765892985697e-01
8.816144285697e-01
8.866395585697e-01
8.916646885697e-01
8.966898185697e-01
9.017149485697e-01
9.067400785697e-01
9.117652085697e-01
9.167903385697e-01
9.218154685697e-01
9.268405985697e-01
9.318657285697e-01
9.368908585697e-01
9.419159885697e-01
9.469411185697e-01
9.519662485697e-01
9.569913785697e-01
9.620165085697e-01
9.670416385697e-01
9.720667685697e-01
9.770918985697e-01
9.821170285697e-01
9.871421585697e-01
9.921672885697e-01
9.971924185697e-01
1.000000000000e+00
</indep>
<dep tran.v(vin) time>
0.000000000000e+00
3.157361314213e-02
3.424182142716e-02
3.957820798261e-02
5.025083975893e-02
7.159536776755e-02
1.142801200301e-01
1.996215185652e-01
3.701048088960e-01
7.095780101858e-01
1.377027844202e+00
2.622986411691e+00
4.108080987493e+00
4.997855779181e+00
4.120487907195e+00
1.653903718607e+00
-1.450568709164e+00
-3.995576453899e+00
-4.999544535909e+00
-4.075256078646e+00
-1.579196607760e+00
1.525937582600e+00
4.042538337358e+00
4.999986867691e+00
4.029008257381e+00
1.504095791041e+00
-1.600926028048e+00
-4.088492384884e+00
-4.999182664250e+00
-3.981755973336e+00
-1.428619991660e+00
1.675515350312e+00
4.133427139780e+00
4.997132126081e+00
3.933511006870e+00
1.352788026315e+00
-1.749686953698e+00
-4.177331399466e+00
-4.993835764398e+00
-3.884285385825e+00
-1.276618800500e+00
1.823422346655e+00
4.220194218271e+00
4.989294401010e+00
3.834091382526e+00
1.200131303790e+00
-1.896703146382e+00
-4.262004910165e+00
-4.983509168114e+00
-3.782941510727e+00
-1.123344605104e+00
1.969511083411e+00
4.302753051420e+00
4.976481508012e+00
3.730848522482e+00
1.046277847960e+00
-2.041828006163e+00
-4.342428483212e+00
-4.968213172755e+00
-3.677825404976e+00
-9.689502456931e-01
2.113635885473e+00
4.381021314148e+00
4.958706223702e+00
3.623885377279e+00
8.913810766693e-01
-2.184916819083e+00
-4.418521922740e+00
-4.947963031009e+00
-3.569041887057e+00
-8.135896794800e-01
2.255653036107e+00
4.454920959798e+00
4.935986273036e+00
3.513308607213e+00
7.355954481196e-01
-2.325826901462e+00
-4.490209350760e+00
-4.922778935681e+00
-3.456699432483e+00
-6.574178271504e-01
2.395420920264e+00
4.524378297959e+00
4.908344311636e+00
3.399228475970e+00
5.790763068551e-01
-2.464417742187e+00
-4.557419282814e+00
-4.892685999563e+00
-3.340910065626e+00
-5.005904183781e-01
2.532800165793e+00
4.589324067952e+00
4.875807903200e+00
3.281758740681e+00
4.219797288556e-01
-2.600551142816e+00
-4.620084699266e+00
-4.857714230386e+00
-3.221789248013e+00
-3.432638365377e-01
2.667653782417e+00
4.649693507893e+00
4.838409492014e+00
3.161016538481e+00
2.644623659025e-01
-2.734091355391e+00
-4.678143112129e+00
-4.817898500902e+00
-3.099455763188e+00
-1.855949627633e-01
2.799847298340e+00
4.705426419268e+00
4.796186370600e+00
3.037122269710e+00
1.066812893707e-01
-2.864905217800e+00
-4.731536627373e+00
-4.773278514108e+00
-2.974031598266e+00
-2.774101951137e-02
2.929248894331e+00
4.756467226966e+00
4.749180642532e+00
2.910199477846e+00
-5.120616639787e-02
-2.992862286560e+00
-4.780212002659e+00
-4.723898763655e+00
-2.845641822290e+00
1.301405862154e-01
3.055729535178e+00
4.802765034694e+00
4.697439180447e+00
2.780374726318e+00
-2.090425609829e-01
-3.117834966896e+00
-4.824120700429e+00
-4.669808489483e+00
-2.714414461520e+00
2.878924198304e-01
3.179163098351e+00
4.844273675730e+00
4.641013579309e+00
2.647777472297e+00
-3.666705048810e-01
-3.239698639968e+00
-4.863218936307e+00
-4.611061628717e+00
-2.580480371764e+00
4.453571761518e-01
3.299426499771e+00
4.880951758959e+00
4.579960104958e+00
2.512539937607e+00
-5.239328164495e-01
-3.358331787144e+00
-4.897467722757e+00
-4.547716761883e+00
-2.443973107899e+00
6.023778362622e-01
3.416399816546e+00
4.912762710145e+00
4.514339638005e+00
2.374796976878e+00
-6.806726786424e-01
-3.473616111170e+00
-4.926832907965e+00
-4.479837054497e+00
-2.305028790686e+00
7.587978240831e-01
3.529966406552e+00
4.939674808407e+00
4.444217613120e+00
2.234685943069e+00
-8.367337953840e-01
-3.585436654131e+00
-4.951285209887e+00
-4.407490194075e+00
-2.163785971041e+00
9.144611625074e-01
3.640013024747e+00
4.961661217843e+00
4.369663953790e+00
2.092346550511e+00
-9.919605474223e-01
-3.693681912090e+00
-4.970800245456e+00
-4.330748322637e+00
-2.020385491876e+00
1.069212628935e+00
3.746429936093e+00
4.978700014296e+00
4.290753002584e+00
1.947920735583e+00
-1.146198147508e+00
-3.798243946268e+00
-4.985358554890e+00
-4.249687964771e+00
-1.874970347652e+00
1.222897910057e+00
3.849111024984e+00
4.990774207212e+00
4.207563447029e+00
1.801552515178e+00
-1.299292794742e+00
-3.899018490686e+00
-4.994945621098e+00
-4.164389951325e+00
-1.727685541791e+00
-2.449293598295e-14
</dep>
<dep tran.v(vout) time>
0.000000000000e+00
3.129058250141e-02
3.393285244844e-02
3.921332592375e-02
4.974995029947e-02
7.072610977532e-02
1.122916688877e-01
1.938883538043e-01
3.510421737802e-01
6.419371165809e-01
1.135478481041e+00
1.805856365725e+00
2.129682844185e+00
1.513306897284e+00
-3.337671487820e-02
-1.711031760773e+00
-2.783017727220e+00
-2.802093550709e+00
-1.748157401601e+00
-2.289140175126e-02
1.710105674071e+00
2.783124119500e+00
2.782573160651e+00
1.708762561854e+00
-2.411680317460e-02
-1.747703022886e+00
-2.797227043686e+00
-2.767899712881e+00
-1.671031441971e+00
7.033082924567e-02
1.784567389283e+00
2.810520479892e+00
2.752493919822e+00
1.632867772182e+00
-1.165333366234e-01
-1.820989118043e+00
-2.823114087391e+00
-2.736402231569e+00
-1.594297137608e+00
1.627067454338e-01
1.856956842879e+00
2.835003864281e+00
2.719628334708e+00
1.555329031554e+00
-2.088395905502e-01
-1.892461614210e+00
-2.846186852930e+00
-2.702176413583e+00
-1.515973170004e+00
2.549203703461e-01
1.927494580289e+00
2.856660265283e+00
2.684050819073e+00
1.476239364671e+00
-3.009375965310e-01
-1.962047007128e+00
-2.866421490237e+00
-2.665256070028e+00
-1.436137521498e+00
3.468797966561e-01
1.996110280542e+00
2.875468094244e+00
2.645796852125e+00
1.395677638184e+00
-3.927355169771e-01
-2.029675908294e+00
-2.883797821916e+00
-2.625678016695e+00
-1.354869801689e+00
4.384933253099e-01
2.062735522216e+00
2.891408596588e+00
2.604904579520e+00
1.313724185721e+00
-4.841418138806e-01
-2.095280880290e+00
-2.898298520834e+00
-2.583481719577e+00
-1.272251048199e+00
5.296696021696e-01
2.127303868708e+00
2.904465876945e+00
2.561414777750e+00
1.230460728694e+00
-5.750653397486e-01
-2.158796503893e+00
-2.909909127350e+00
-2.538709255498e+00
-1.188363645857e+00
6.203177091108e-01
2.189750934488e+00
2.914626915005e+00
2.515370813483e+00
1.145970294813e+00
-6.654154284921e-01
-2.220159443316e+00
-2.918618063730e+00
-2.491405270157e+00
-1.103291244551e+00
7.103472546839e-01
2.250014449301e+00
2.921881578499e+00
2.466818600315e+00
1.060337135287e+00
-7.551019858358e-01
-2.279308509360e+00
-2.924416645695e+00
-2.441616933603e+00
-1.017118675812e+00
7.996684642489e-01
2.308034320258e+00
2.926222633305e+00
2.415806552990e+00
9.736466408194e-01
-8.440355791571e-01
-2.336184720430e+00
-2.927299091083e+00
-2.389393893204e+00
-9.299318682229e-01
8.881922694968e-01
2.363752691765e+00
2.927645750659e+00
2.362385539124e+00
8.859852564518e-01
-9.321275266653e-01
-2.390731361354e+00
-2.927262525609e+00
-2.334788224140e+00
-8.418177617348e-01
9.758303972647e-01
2.417114003207e+00
2.926149511473e+00
2.306608828475e+00
7.974403953684e-01
-1.019289985833e+00
-2.442894039929e+00
-2.924306985734e+00
-2.277854377470e+00
-7.528642209716e-01
1.062495457560e+00
2.468065044359e+00
2.921735407749e+00
2.248532039831e+00
7.081003517280e-01
-1.105436040988e+00
-2.492620741171e+00
-2.918435418631e+00
-2.218649125842e+00
-6.631599476149e-01
1.148101030701e+00
2.516555008440e+00
2.914407841093e+00
2.188213085544e+00
6.180542126209e-01
-1.190479789987e+00
-2.539861879170e+00
-2.909653679241e+00
-2.157231506876e+00
-5.727943919531e-01
1.232561753495e+00
2.562535542778e+00
2.904174118325e+00
2.125712113784e+00
5.273917692333e-01
-1.274336429869e+00
-2.584570346546e+00
-2.897970524441e+00
-2.093662764296e+00
-4.818576636848e-01
1.315793404359e+00
2.605960797027e+00
2.891044444193e+00
2.061091448560e+00
4.362034273108e-01
-1.356922341422e+00
-2.626701561417e+00
-2.883397604306e+00
-2.028006286858e+00
-3.904404420639e-01
1.397712987299e+00
2.646787468884e+00
2.875031911195e+00
1.994415527574e+00
3.445801170086e-01
-1.438155172566e+00
-2.666213511856e+00
-2.865949450494e+00
-1.960327545143e+00
-2.986338854772e-01
1.478238814676e+00
2.684974847272e+00
2.856152486529e+00
1.925750837962e+00
2.526132022188e-01
-1.517953920468e+00
-2.703066797786e+00
-2.845643461758e+00
-1.890694026270e+00
-2.065295405442e-01
1.557290588660e+00
2.720484852935e+00
2.834424996163e+00
1.855165850000e+00
1.603943894649e-01
-1.596239012319e+00
-2.737224670265e+00
-2.822499886593e+00
-1.819175166601e+00
-1.142192508295e-01
1.634789481301e+00
2.354461735694e+00
</dep>
