<Qucs Dataset 24.2.1>
<indep time 220>
0.000000000000e+00
2.500000000000e-06
2.580129500297e-06
2.740388500890e-06
3.060906502078e-06
3.701942504452e-06
4.984014509201e-06
7.548158518698e-06
1.267644653769e-05
2.293302257568e-05
4.344617465166e-05
6.386829296700e-05
8.290294345947e-05
1.029375349413e-04
1.228566327418e-04
1.458481085591e-04
1.805727994928e-04
2.324080112893e-04
3.360784348825e-04
5.434192820688e-04
7.934192820688e-04
1.043419282069e-03
1.293419282069e-03
1.543419282069e-03
1.793419282069e-03
2.043419282069e-03
2.293419282069e-03
2.543419282069e-03
2.793419282069e-03
3.043419282069e-03
3.293419282069e-03
3.543419282069e-03
3.793419282069e-03
4.043419282069e-03
4.293419282069e-03
4.543419282069e-03
4.793419282069e-03
5.043419282069e-03
5.293419282069e-03
5.543419282069e-03
5.793419282069e-03
6.043419282069e-03
6.293419282069e-03
6.543419282069e-03
6.793419282069e-03
7.043419282069e-03
7.293419282069e-03
7.543419282069e-03
7.793419282069e-03
8.043419282069e-03
8.293419282069e-03
8.543419282069e-03
8.793419282069e-03
9.043419282069e-03
9.293419282069e-03
9.543419282069e-03
9.793419282069e-03
1.004341928207e-02
1.029341928207e-02
1.054341928207e-02
1.079341928207e-02
1.104341928207e-02
1.129341928207e-02
1.154341928207e-02
1.179341928207e-02
1.204341928207e-02
1.229341928207e-02
1.254341928207e-02
1.279341928207e-02
1.304341928207e-02
1.329341928207e-02
1.354341928207e-02
1.379341928207e-02
1.404341928207e-02
1.429341928207e-02
1.454341928207e-02
1.479341928207e-02
1.504341928207e-02
1.529341928207e-02
1.554341928207e-02
1.579341928207e-02
1.604341928207e-02
1.629341928207e-02
1.654341928207e-02
1.679341928207e-02
1.704341928207e-02
1.729341928207e-02
1.754341928207e-02
1.779341928207e-02
1.804341928207e-02
1.829341928207e-02
1.854341928207e-02
1.879341928207e-02
1.904341928207e-02
1.929341928207e-02
1.954341928207e-02
1.979341928207e-02
1.999760193867e-02
2.019621562062e-02
2.039058108728e-02
2.064058108728e-02
2.089058108728e-02
2.114058108728e-02
2.139058108728e-02
2.164058108728e-02
2.189058108728e-02
2.214058108728e-02
2.239058108728e-02
2.264058108728e-02
2.289058108728e-02
2.314058108728e-02
2.339058108728e-02
2.364058108728e-02
2.389058108728e-02
2.414058108728e-02
2.439058108728e-02
2.464058108728e-02
2.489058108728e-02
2.514058108728e-02
2.539058108728e-02
2.564058108728e-02
2.589058108728e-02
2.614058108728e-02
2.639058108728e-02
2.664058108728e-02
2.689058108728e-02
2.714058108728e-02
2.739058108728e-02
2.764058108728e-02
2.789058108728e-02
2.814058108728e-02
2.839058108728e-02
2.864058108728e-02
2.889058108728e-02
2.914058108728e-02
2.939058108728e-02
2.964058108728e-02
2.983518866588e-02
3.002275318591e-02
3.020488127872e-02
3.044332493308e-02
3.069332493308e-02
3.094332493308e-02
3.119332493308e-02
3.144332493308e-02
3.169332493308e-02
3.194332493308e-02
3.219332493308e-02
3.244332493308e-02
3.269332493308e-02
3.294332493308e-02
3.319332493308e-02
3.344332493308e-02
3.369332493308e-02
3.394332493308e-02
3.419332493308e-02
3.444332493308e-02
3.469332493308e-02
3.494332493308e-02
3.519332493308e-02
3.544332493308e-02
3.569332493308e-02
3.594332493308e-02
3.619332493308e-02
3.644332493308e-02
3.669332493308e-02
3.694332493308e-02
3.719332493308e-02
3.744332493308e-02
3.769332493308e-02
3.794332493308e-02
3.819332493308e-02
3.844332493308e-02
3.869332493308e-02
3.894332493308e-02
3.919332493308e-02
3.944332493308e-02
3.969332493308e-02
3.994332493308e-02
4.019332493308e-02
4.044332493308e-02
4.069223787050e-02
4.094223787050e-02
4.119223787050e-02
4.144223787050e-02
4.169223787050e-02
4.194223787050e-02
4.219223787050e-02
4.244223787050e-02
4.269223787050e-02
4.294223787050e-02
4.319223787050e-02
4.344223787050e-02
4.369223787050e-02
4.394223787050e-02
4.419223787050e-02
4.444223787050e-02
4.469223787050e-02
4.494223787050e-02
4.519223787050e-02
4.544223787050e-02
4.569223787050e-02
4.594223787050e-02
4.619223787050e-02
4.644223787050e-02
4.669223787050e-02
4.694223787050e-02
4.719223787050e-02
4.744223787050e-02
4.769223787050e-02
4.794223787050e-02
4.819223787050e-02
4.844223787050e-02
4.869223787050e-02
4.894223787050e-02
4.919223787050e-02
4.944223787050e-02
4.969223787050e-02
4.990858859548e-02
5.000000000000e-02
</indep>
<dep tran.v(in) time>
0.000000000000e+00
1.884955398365e-01
1.945371599000e-01
2.066203996533e-01
2.307868775580e-01
2.791198261025e-01
3.757856872706e-01
5.691172110365e-01
9.557790251960e-01
1.729094207312e+00
3.275662685504e+00
4.815232724822e+00
6.250028024599e+00
7.759954564331e+00
9.260872166731e+00
1.099284092146e+01
1.360756708616e+01
1.750758629305e+01
2.529266377544e+01
4.077411016309e+01
5.920485950035e+01
7.727059119118e+01
9.485992399223e+01
1.118644138177e+02
1.281792223334e+02
1.437037633194e+02
1.583423228182e+02
1.720046492427e+02
1.846065098073e+02
1.960702098510e+02
2.063250718510e+02
2.153078711730e+02
2.229632258720e+02
2.292439381408e+02
2.341112852996e+02
2.375352585346e+02
2.394947479123e+02
2.399776725290e+02
2.389810549939e+02
2.365110397855e+02
2.325828553689e+02
2.272207203073e+02
2.204576939465e+02
2.123354725928e+02
2.029041324419e+02
1.922218208421e+02
1.803543977965e+02
1.673750299145e+02
1.533637393153e+02
1.384069102646e+02
1.225967565872e+02
1.060307531378e+02
8.881103483654e+01
7.104376697284e+01
5.283849066130e+01
3.430744748425e+01
1.556488748509e+01
-3.273635221280e+00
-2.209197487791e+01
-4.077411016309e+01
-5.920485950035e+01
-7.727059119118e+01
-9.485992399223e+01
-1.118644138177e+02
-1.281792223334e+02
-1.437037633194e+02
-1.583423228182e+02
-1.720046492427e+02
-1.846065098073e+02
-1.960702098510e+02
-2.063250718510e+02
-2.153078711730e+02
-2.229632258720e+02
-2.292439381408e+02
-2.341112852996e+02
-2.375352585346e+02
-2.394947479123e+02
-2.399776725290e+02
-2.389810549939e+02
-2.365110397855e+02
-2.325828553689e+02
-2.272207203073e+02
-2.204576939465e+02
-2.123354725928e+02
-2.029041324419e+02
-1.922218208421e+02
-1.803543977965e+02
-1.673750299145e+02
-1.533637393153e+02
-1.384069102646e+02
-1.225967565872e+02
-1.060307531378e+02
-8.881103483654e+01
-7.104376697284e+01
-5.283849066130e+01
-3.430744748425e+01
-1.556488748508e+01
-1.808095474982e-01
1.478494166538e+01
2.937527600388e+01
4.797332486385e+01
6.627560222328e+01
8.416926845613e+01
1.015440031598e+02
1.182926853172e+02
1.343120537334e+02
1.495033436749e+02
1.637728957878e+02
1.770327335382e+02
1.892011056169e+02
2.002029899638e+02
2.099705563032e+02
2.184435843408e+02
2.255698350411e+02
2.313053726987e+02
2.356148358168e+02
2.384716551222e+02
2.398582173739e+02
2.397659739546e+02
2.381954935755e+02
2.351564587706e+02
2.306676061998e+02
2.247566111320e+02
2.174599168175e+02
2.088225098030e+02
1.988976425751e+02
1.877465052405e+02
1.754378482690e+02
1.620475586240e+02
1.476581918938e+02
1.323584633092e+02
1.162427007846e+02
9.941026335513e+01
8.196492859478e+01
6.401425279353e+01
4.566890783691e+01
2.704199887703e+01
1.242093030670e+01
-1.715535191147e+00
-1.543702032663e+01
-3.331795446260e+01
-5.186309580049e+01
-7.008848390655e+01
-8.788175320253e+01
-1.051332022664e+02
-1.217364701779e+02
-1.375891922693e+02
-1.525936312373e+02
-1.666572797262e+02
-1.796934306664e+02
-1.916217118525e+02
-2.023685814642e+02
-2.118677814769e+02
-2.200607461636e+02
-2.268969631725e+02
-2.323342849526e+02
-2.363391886070e+02
-2.388869825728e+02
-2.399619588532e+02
-2.395574898617e+02
-2.376760692843e+02
-2.343292967044e+02
-2.295378060880e+02
-2.233311385679e+02
-2.157475603135e+02
-2.068338266064e+02
-1.966448935790e+02
-1.852435793916e+02
-1.727001769376e+02
-1.590920204640e+02
-1.445030087809e+02
-1.290230879965e+02
-1.127476969701e+02
-9.577717889943e+01
-7.821616267171e+01
-6.017291779161e+01
-4.175868686380e+01
-2.308699974529e+01
-4.272973596158e+00
1.456739685611e+01
3.331795446260e+01
5.178306679606e+01
7.001009018498e+01
8.780547808719e+01
1.050595160187e+02
1.216658270981e+02
1.375220278955e+02
1.525303596602e+02
1.665982910361e+02
1.796390885482e+02
1.915723513433e+02
2.023245068882e+02
2.118292645683e+02
2.200280243920e+02
2.268702382786e+02
2.323137217042e+02
2.363249137833e+02
2.388790841830e+02
2.399604855933e+02
2.395624508150e+02
2.376874338647e+02
2.343469948457e+02
2.295617286751e+02
2.233611381102e+02
2.157834518537e+02
2.068753888613e+02
1.966918703035e+02
1.852956809586e+02
1.727570821236e+02
1.591533784296e+02
1.445684412338e+02
1.290921915239e+02
1.128200455258e+02
9.585232643048e+01
7.829364586861e+01
6.025225894468e+01
4.183939680844e+01
2.316858087787e+01
6.891310213865e+00
1.469576158977e-13
</dep>
<dep tran.v(out) time>
9.736326714253e-29
5.737396060237e-12
1.408811338035e-09
1.529557625745e-09
1.678982025440e-09
2.084973869359e-09
2.771890865169e-09
4.226078942334e-09
7.115816028367e-09
1.303205859673e-08
6.090465079662e-08
4.737023668173e-06
4.514329885978e-04
3.028382901747e-02
1.802794392504e-01
4.229952053913e-01
8.165477412155e-01
1.431927232846e+00
2.677753716191e+00
5.187570042182e+00
8.181950329649e+00
1.111959379348e+01
1.397214836100e+01
1.672764021650e+01
1.936031894223e+01
2.186142403934e+01
2.420748441908e+01
2.639153452754e+01
2.839233518214e+01
3.020501987493e+01
3.181083995045e+01
3.320728202546e+01
3.437833036651e+01
3.532405103618e+01
3.603135814612e+01
3.650306840644e+01
3.672916118620e+01
3.671530940676e+01
3.645462449992e+01
3.595567071232e+01
3.521468683314e+01
3.424309169298e+01
3.304017535921e+01
3.162010420010e+01
2.998507532737e+01
2.815183034079e+01
2.612526863041e+01
2.392448060677e+01
2.155681983968e+01
1.904347264843e+01
1.639400470533e+01
1.363151528999e+01
1.076776319942e+01
7.828215457690e+00
4.828891342762e+00
1.812919153303e+00
-3.983195672445e-08
1.480367007307e+00
4.513207094205e+00
7.550725925671e+00
1.054534544669e+01
1.348062198084e+01
1.632972680997e+01
1.907984499870e+01
2.170807971002e+01
2.420338530849e+01
2.654465393048e+01
2.872267820479e+01
3.071851598019e+01
3.252507109443e+01
3.412583712215e+01
3.551610007643e+01
3.668204136374e+01
3.762156028268e+01
3.832372678535e+01
3.878922621242e+01
3.901015435141e+01
3.899008844839e+01
3.872421798276e+01
3.821904691506e+01
3.747285427824e+01
3.649503324340e+01
3.528687641054e+01
3.386055777124e+01
3.222023849042e+01
3.038069855421e+01
2.834876015832e+01
2.614157713071e+01
2.376837596780e+01
2.124841500603e+01
1.859305239573e+01
1.582340433360e+01
1.295279423853e+01
1.000425618925e+01
6.993810058462e+00
3.949594826148e+00
9.235541052269e-01
1.585710294430e-08
1.217276400733e+00
3.563208307003e+00
6.579138402733e+00
9.558394297049e+00
1.246225472843e+01
1.528154703812e+01
1.798806771027e+01
2.057384259300e+01
2.301324929946e+01
2.530025048109e+01
2.741140778945e+01
2.934266928064e+01
3.107303213552e+01
3.260069356353e+01
3.390733775740e+01
3.499365142379e+01
3.584421912645e+01
3.646240729620e+01
3.683585590668e+01
3.697073794785e+01
3.685783674416e+01
3.650618919910e+01
3.590973889682e+01
3.508037222575e+01
3.401513816764e+01
3.272868700247e+01
3.122104867851e+01
2.950948438513e+01
2.759681696873e+01
2.550270674597e+01
2.323253066074e+01
2.080809735078e+01
1.823708159748e+01
1.554321064458e+01
1.273630739849e+01
9.842098151439e+00
6.873321884235e+00
3.861003248036e+00
8.562818675419e-01
-6.745348814159e-08
1.034928921753e+00
3.233353963738e+00
6.134322715891e+00
9.150248015648e+00
1.211055890896e+01
1.499751007583e+01
1.778892995133e+01
2.046931845524e+01
2.301935784690e+01
2.542543565932e+01
2.767012541290e+01
2.974178527579e+01
3.162518213737e+01
3.331092270979e+01
3.478623818658e+01
3.604424442003e+01
3.707487571033e+01
3.787397091563e+01
3.843435062468e+01
3.875472915991e+01
3.883093102452e+01
3.866463002489e+01
3.825470175445e+01
3.760579184401e+01
3.671980195446e+01
3.560428977793e+01
3.426408672443e+01
3.270953295505e+01
3.094822583810e+01
2.899309422252e+01
2.685427825748e+01
2.454704909023e+01
2.208382446095e+01
1.948194648578e+01
1.675585177961e+01
1.392475146452e+01
1.100505843802e+01
8.018265457498e+00
4.984701583995e+00
1.942209721853e+00
1.053543136831e-07
1.365413269694e+00
4.381778039755e+00
7.386524781503e+00
1.034493071034e+01
1.323919256213e+01
1.603079303276e+01
1.871903073091e+01
2.126982482828e+01
2.368413701938e+01
2.592997893947e+01
2.801006871264e+01
2.989488719349e+01
3.158916582680e+01
3.306610446245e+01
3.433270350965e+01
3.536511278951e+01
3.617281621864e+01
3.673509154610e+01
3.706406122613e+01
3.714224433601e+01
3.698448923065e+01
3.657659973901e+01
3.593616618753e+01
3.505224875115e+01
3.394512396421e+01
3.260700912192e+01
3.106074176323e+01
2.930153051484e+01
2.735458546605e+01
2.521788356092e+01
2.291876929128e+01
2.045772934469e+01
1.786399047726e+01
1.514032239488e+01
1.231770646849e+01
9.401336646768e+00
6.424908232318e+00
3.401820740781e+00
4.245273384650e-01
3.089282027264e-05
6.053869826636e-01
</dep>
