<Qucs Dataset 24.2.1>
<indep frequency 100>
1.000000000000e+02
1.072267222010e+02
1.149756995398e+02
1.232846739442e+02
1.321941148466e+02
1.417474162927e+02
1.519911082953e+02
1.629750834621e+02
1.747528400008e+02
1.873817422860e+02
2.009233002565e+02
2.154434690032e+02
2.310129700083e+02
2.477076355992e+02
2.656087782947e+02
2.848035868436e+02
3.053855508833e+02
3.274549162878e+02
3.511191734215e+02
3.764935806792e+02
4.037017258597e+02
4.328761281083e+02
4.641588833613e+02
4.977023564332e+02
5.336699231206e+02
5.722367659350e+02
6.135907273413e+02
6.579332246576e+02
7.054802310719e+02
7.564633275546e+02
8.111308307897e+02
8.697490026178e+02
9.326033468832e+02
1.000000000000e+03
1.072267222010e+03
1.149756995398e+03
1.232846739442e+03
1.321941148466e+03
1.417474162927e+03
1.519911082953e+03
1.629750834621e+03
1.747528400008e+03
1.873817422860e+03
2.009233002565e+03
2.154434690032e+03
2.310129700083e+03
2.477076355992e+03
2.656087782947e+03
2.848035868436e+03
3.053855508833e+03
3.274549162878e+03
3.511191734215e+03
3.764935806792e+03
4.037017258597e+03
4.328761281083e+03
4.641588833613e+03
4.977023564332e+03
5.336699231206e+03
5.722367659350e+03
6.135907273413e+03
6.579332246576e+03
7.054802310719e+03
7.564633275546e+03
8.111308307897e+03
8.697490026178e+03
9.326033468832e+03
1.000000000000e+04
1.072267222010e+04
1.149756995398e+04
1.232846739442e+04
1.321941148466e+04
1.417474162927e+04
1.519911082953e+04
1.629750834621e+04
1.747528400008e+04
1.873817422860e+04
2.009233002565e+04
2.154434690032e+04
2.310129700083e+04
2.477076355992e+04
2.656087782947e+04
2.848035868436e+04
3.053855508833e+04
3.274549162878e+04
3.511191734215e+04
3.764935806792e+04
4.037017258597e+04
4.328761281083e+04
4.641588833613e+04
4.977023564332e+04
5.336699231206e+04
5.722367659350e+04
6.135907273413e+04
6.579332246576e+04
7.054802310719e+04
7.564633275546e+04
8.111308307897e+04
8.697490026178e+04
9.326033468832e+04
1.000000000000e+05
</indep>
<dep ac.v(vin) frequency>
1.000000000000e+00+j0.000000000000e+00
1.000000000000e+00+j0.000000000000e+00
1.000000000000e+00+j0.000000000000e+00
1.000000000000e+00+j0.000000000000e+00
1.000000000000e+00+j0.000000000000e+00
1.000000000000e+00+j0.000000000000e+00
1.000000000000e+00+j0.000000000000e+00
1.000000000000e+00+j0.000000000000e+00
1.000000000000e+00+j0.000000000000e+00
1.000000000000e+00+j0.000000000000e+00
1.000000000000e+00+j0.000000000000e+00
1.000000000000e+00+j0.000000000000e+00
1.000000000000e+00+j0.000000000000e+00
1.000000000000e+00+j0.000000000000e+00
1.000000000000e+00+j0.000000000000e+00
1.000000000000e+00+j0.000000000000e+00
1.000000000000e+00+j0.000000000000e+00
1.000000000000e+00+j0.000000000000e+00
1.000000000000e+00+j0.000000000000e+00
1.000000000000e+00+j0.000000000000e+00
1.000000000000e+00+j0.000000000000e+00
1.000000000000e+00+j0.000000000000e+00
1.000000000000e+00+j0.000000000000e+00
1.000000000000e+00+j0.000000000000e+00
1.000000000000e+00+j0.000000000000e+00
1.000000000000e+00+j0.000000000000e+00
1.000000000000e+00+j0.000000000000e+00
1.000000000000e+00+j0.000000000000e+00
1.000000000000e+00+j0.000000000000e+00
1.000000000000e+00+j0.000000000000e+00
1.000000000000e+00+j0.000000000000e+00
1.000000000000e+00+j0.000000000000e+00
1.000000000000e+00+j0.000000000000e+00
1.000000000000e+00+j0.000000000000e+00
1.000000000000e+00+j0.000000000000e+00
1.000000000000e+00+j0.000000000000e+00
1.000000000000e+00+j0.000000000000e+00
1.000000000000e+00+j0.000000000000e+00
1.000000000000e+00+j0.000000000000e+00
1.000000000000e+00+j0.000000000000e+00
1.000000000000e+00+j0.000000000000e+00
1.000000000000e+00+j0.000000000000e+00
1.000000000000e+00+j0.000000000000e+00
1.000000000000e+00+j0.000000000000e+00
1.000000000000e+00+j0.000000000000e+00
1.000000000000e+00+j0.000000000000e+00
1.000000000000e+00+j0.000000000000e+00
1.000000000000e+00+j0.000000000000e+00
1.000000000000e+00+j0.000000000000e+00
1.000000000000e+00+j0.000000000000e+00
1.000000000000e+00+j0.000000000000e+00
1.000000000000e+00+j0.000000000000e+00
1.000000000000e+00+j0.000000000000e+00
1.000000000000e+00+j0.000000000000e+00
1.000000000000e+00+j0.000000000000e+00
1.000000000000e+00+j0.000000000000e+00
1.000000000000e+00+j0.000000000000e+00
1.000000000000e+00+j0.000000000000e+00
1.000000000000e+00+j0.000000000000e+00
1.000000000000e+00+j0.000000000000e+00
1.000000000000e+00+j0.000000000000e+00
1.000000000000e+00+j0.000000000000e+00
1.000000000000e+00+j0.000000000000e+00
1.000000000000e+00+j0.000000000000e+00
1.000000000000e+00+j0.000000000000e+00
1.000000000000e+00+j0.000000000000e+00
1.000000000000e+00+j0.000000000000e+00
1.000000000000e+00+j0.000000000000e+00
1.000000000000e+00+j0.000000000000e+00
1.000000000000e+00+j0.000000000000e+00
1.000000000000e+00+j0.000000000000e+00
1.000000000000e+00+j0.000000000000e+00
1.000000000000e+00+j0.000000000000e+00
1.000000000000e+00+j0.000000000000e+00
1.000000000000e+00+j0.000000000000e+00
1.000000000000e+00+j0.000000000000e+00
1.000000000000e+00+j0.000000000000e+00
1.000000000000e+00+j0.000000000000e+00
1.000000000000e+00+j0.000000000000e+00
1.000000000000e+00+j0.000000000000e+00
1.000000000000e+00+j0.000000000000e+00
1.000000000000e+00+j0.000000000000e+00
1.000000000000e+00+j0.000000000000e+00
1.000000000000e+00+j0.000000000000e+00
1.000000000000e+00+j0.000000000000e+00
1.000000000000e+00+j0.000000000000e+00
1.000000000000e+00+j0.000000000000e+00
1.000000000000e+00+j0.000000000000e+00
1.000000000000e+00+j0.000000000000e+00
1.000000000000e+00+j0.000000000000e+00
1.000000000000e+00+j0.000000000000e+00
1.000000000000e+00+j0.000000000000e+00
1.000000000000e+00+j0.000000000000e+00
1.000000000000e+00+j0.000000000000e+00
1.000000000000e+00+j0.000000000000e+00
1.000000000000e+00+j0.000000000000e+00
1.000000000000e+00+j0.000000000000e+00
1.000000000000e+00+j0.000000000000e+00
1.000000000000e+00+j0.000000000000e+00
1.000000000000e+00+j0.000000000000e+00
</dep>
<dep ac.v(vout) frequency>
3.059333040979e-07+j5.531122946588e-04
3.517855569086e-07+j5.931150252316e-04
4.045162966214e-07+j6.360158276238e-04
4.651594250911e-07+j6.820258123545e-04
5.349049038854e-07+j7.313717370545e-04
6.151225210591e-07+j7.842972285322e-04
7.073893451699e-07+j8.410641145419e-04
8.135214602458e-07+j9.019538782159e-04
9.356106778558e-07+j9.672692502548e-04
1.076067044658e-06+j1.037335956543e-03
1.237668110240e-06+j1.112504641976e-03
1.423616096335e-06+j1.193152995073e-03
1.637604321657e-06+j1.279688102589e-03
1.883894495823e-06+j1.372549068982e-03
2.167406812660e-06+j1.472209942572e-03
2.493825162814e-06+j1.579182998784e-03
2.869720267529e-06+j1.694022441479e-03
3.302694135461e-06+j1.817328596504e-03
3.801549996119e-06+j1.949752687993e-03
4.376492811835e-06+j2.092002308351e-03
5.039366674656e-06+j2.244847718541e-03
5.803936935241e-06+j2.409129147546e-03
6.686226896101e-06+j2.585765300732e-03
7.704921478431e-06+j2.775763338726e-03
8.881853642517e-06+j2.980230654696e-03
1.024259378542e-05+j3.200388863044e-03
1.181716824586e-05+j3.437590522502e-03
1.364094096246e-05+j3.693339259694e-03
1.575570303657e-05+j3.969314146598e-03
1.821102956074e-05+j4.267399432809e-03
2.106598321074e-05+j4.589721062885e-03
2.439127214149e-05+j4.938691851830e-03
2.827200921760e-05+j5.317067792599e-03
3.281127588361e-05+j5.728018793944e-03
3.813477520764e-05+j6.175218291410e-03
4.439697751244e-05+j6.662957783209e-03
5.178933862542e-05+j7.196294636118e-03
6.055143749238e-05+j7.781244824306e-03
7.098628990630e-05+j8.425037142526e-03
8.348173779987e-05+j9.136452736118e-03
9.854084281956e-05+j9.926284930519e-03
1.168259007062e-04+j1.080797170681e-02
1.392235342332e-04+j1.179848087851e-02
1.669432472527e-04+j1.291957341420e-02
2.016706434856e-04+j1.419964691241e-02
2.458129107286e-04+j1.567649472113e-02
3.029059675181e-04+j1.740155784673e-02
3.783174049923e-04+j1.944670360070e-02
4.805188534711e-04+j2.191547296096e-02
6.235228643248e-04+j2.496265377644e-02
8.318824643626e-04+j2.883037349616e-02
1.151867121344e-03+j3.391961561513e-02
1.679359705185e-03+j4.094556699040e-02
2.640599786178e-03+j5.131887585428e-02
4.680817331882e-03+j6.825618859113e-02
1.030359610741e-02+j1.009823351615e-01
3.748896349449e-02+j1.899566821952e-01
8.863980236736e-01+j3.173272243302e-01
5.021058533309e-02-j2.183792170826e-01
1.198970778679e-02-j1.088391229934e-01
5.185839201990e-03-j7.182580506866e-02
2.854415040262e-03-j5.335042038297e-02
1.788966164293e-03-j4.225832183554e-02
1.215295028015e-03-j3.483989216415e-02
8.717851682613e-04-j2.951313536176e-02
6.502014831960e-04-j2.549075756480e-02
4.991987233953e-04-j2.233717806774e-02
3.918767673726e-04-j1.979199838247e-02
3.130357658425e-04-j1.769004732757e-02
2.535594457550e-04-j1.592153112494e-02
2.077095752425e-04-j1.441063607114e-02
1.717267966950e-04-j1.310333188935e-02
1.430637437269e-04-j1.196007008726e-02
1.199438214135e-04-j1.095122983474e-02
1.010966954236e-04-j1.005417698680e-02
8.559401293630e-05-j9.251307291472e-03
7.274419082255e-05-j8.528710283815e-03
6.202319050007e-05-j7.875236099566e-03
5.302786851927e-05-j7.281830577844e-03
4.544386168789e-05-j6.741053073766e-03
3.902304879447e-05-j6.246721219658e-03
3.356745481537e-05-j5.793645488063e-03
2.891757147124e-05-j5.377428311498e-03
2.494375746320e-05-j4.994310289936e-03
2.153982018650e-05-j4.641051198020e-03
1.861816513313e-05-j4.314837018598e-03
1.610608704323e-05-j4.013206652689e-03
1.394290300216e-05-j3.733993652595e-03
1.207771367733e-05-j3.475279529212e-03
1.046763834534e-05-j3.235356050559e-03
9.076411005188e-06-j3.012694578604e-03
7.873254393337e-06-j2.805920954910e-03
6.831969880300e-06-j2.613794790049e-03
5.930196559075e-06-j2.435192269995e-03
5.148804053069e-06-j2.269091788114e-03
4.471391854625e-06-j2.114561860358e-03
3.883874177359e-06-j1.970750895694e-03
3.374133943390e-06-j1.836878482266e-03
2.931733040313e-06-j1.712227918606e-03
2.547668665835e-06-j1.596139773084e-03
</dep>
<dep ac.gain frequency>
-6.514373242863e+01+j0.000000000000e+00
-6.453721995133e+01+j0.000000000000e+00
-6.393063977413e+01+j0.000000000000e+00
-6.332398174914e+01+j0.000000000000e+00
-6.271723420575e+01+j0.000000000000e+00
-6.211038372159e+01+j0.000000000000e+00
-6.150341485896e+01+j0.000000000000e+00
-6.089630986128e+01+j0.000000000000e+00
-6.028904830356e+01+j0.000000000000e+00
-5.968160668988e+01+j0.000000000000e+00
-5.907395798947e+01+j0.000000000000e+00
-5.846607110223e+01+j0.000000000000e+00
-5.785791024236e+01+j0.000000000000e+00
-5.724943422756e+01+j0.000000000000e+00
-5.664059565878e+01+j0.000000000000e+00
-5.603133997324e+01+j0.000000000000e+00
-5.542160435039e+01+j0.000000000000e+00
-5.481131644726e+01+j0.000000000000e+00
-5.420039293512e+01+j0.000000000000e+00
-5.358873780502e+01+j0.000000000000e+00
-5.297624040337e+01+j0.000000000000e+00
-5.236277315191e+01+j0.000000000000e+00
-5.174818889776e+01+j0.000000000000e+00
-5.113231782858e+01+j0.000000000000e+00
-5.051496387520e+01+j0.000000000000e+00
-4.989590050777e+01+j0.000000000000e+00
-4.927486581199e+01+j0.000000000000e+00
-4.865155670683e+01+j0.000000000000e+00
-4.802562213367e+01+j0.000000000000e+00
-4.739665500668e+01+j0.000000000000e+00
-4.676418266277e+01+j0.000000000000e+00
-4.612765548205e+01+j0.000000000000e+00
-4.548643326243e+01+j0.000000000000e+00
-4.483976881518e+01+j0.000000000000e+00
-4.418678809295e+01+j0.000000000000e+00
-4.352646595073e+01+j0.000000000000e+00
-4.285759635095e+01+j0.000000000000e+00
-4.217875542239e+01+j0.000000000000e+00
-4.148825521605e+01+j0.000000000000e+00
-4.078408519010e+01+j0.000000000000e+00
-4.006383727526e+01+j0.000000000000e+00
-3.932460861960e+01+j0.000000000000e+00
-3.856287345733e+01+j0.000000000000e+00
-3.777431143188e+01+j0.000000000000e+00
-3.695357315967e+01+j0.000000000000e+00
-3.609395310583e+01+j0.000000000000e+00
-3.518692170594e+01+j0.000000000000e+00
-3.422143677956e+01+j0.000000000000e+00
-3.318289567833e+01+j0.000000000000e+00
-3.205147616495e+01+j0.000000000000e+00
-3.079938030301e+01+j0.000000000000e+00
-2.938597617958e+01+j0.000000000000e+00
-2.774856271554e+01+j0.000000000000e+00
-2.578297416220e+01+j0.000000000000e+00
-2.329678306812e+01+j0.000000000000e+00
-1.987011173641e+01+j0.000000000000e+00
-1.426096566910e+01+j0.000000000000e+00
-5.237122092407e-01+j0.000000000000e+00
-1.299204715781e+01+j0.000000000000e+00
-1.921191401399e+01+j0.000000000000e+00
-2.285180953585e+01+j0.000000000000e+00
-2.544482878947e+01+j0.000000000000e+00
-2.747397873407e+01+j0.000000000000e+00
-2.915318278868e+01+j0.000000000000e+00
-3.059590523936e+01+j0.000000000000e+00
-3.186952044155e+01+j0.000000000000e+00
-3.301726533949e+01+j0.000000000000e+00
-3.406850483143e+01+j0.000000000000e+00
-3.504406039384e+01+j0.000000000000e+00
-3.595920206205e+01+j0.000000000000e+00
-3.682543482381e+01+j0.000000000000e+00
-3.765161931113e+01+j0.000000000000e+00
-3.844470414419e+01+j0.000000000000e+00
-3.921022118643e+01+j0.000000000000e+00
-3.995263040084e+01+j0.000000000000e+00
-4.067556611954e+01+j0.000000000000e+00
-4.138201682678e+01+j0.000000000000e+00
-4.207445897226e+01+j0.000000000000e+00
-4.275495829207e+01+j0.000000000000e+00
-4.342524770640e+01+j0.000000000000e+00
-4.408678803038e+01+j0.000000000000e+00
-4.474081587008e+01+j0.000000000000e+00
-4.538838182364e+01+j0.000000000000e+00
-4.603038124931e+01+j0.000000000000e+00
-4.666757926495e+01+j0.000000000000e+00
-4.730063122056e+01+j0.000000000000e+00
-4.793009958150e+01+j0.000000000000e+00
-4.855646793916e+01+j0.000000000000e+00
-4.918015270292e+01+j0.000000000000e+00
-4.980151290554e+01+j0.000000000000e+00
-5.042085846277e+01+j0.000000000000e+00
-5.103845715808e+01+j0.000000000000e+00
-5.165454056963e+01+j0.000000000000e+00
-5.226930911508e+01+j0.000000000000e+00
-5.288293635710e+01+j0.000000000000e+00
-5.349557268659e+01+j0.000000000000e+00
-5.410734848013e+01+j0.000000000000e+00
-5.471837681166e+01+j0.000000000000e+00
-5.532875578505e+01+j0.000000000000e+00
-5.593857054341e+01+j0.000000000000e+00
</dep>
<dep ac.v(phase) frequency>
1.570243214387e+00+j0.000000000000e+00
1.570203211631e+00+j0.000000000000e+00
1.570160310796e+00+j0.000000000000e+00
1.570114300771e+00+j0.000000000000e+00
1.570064954797e+00+j0.000000000000e+00
1.570012029245e+00+j0.000000000000e+00
1.569955262284e+00+j0.000000000000e+00
1.569894372428e+00+j0.000000000000e+00
1.569829056941e+00+j0.000000000000e+00
1.569758990094e+00+j0.000000000000e+00
1.569683821235e+00+j0.000000000000e+00
1.569603172667e+00+j0.000000000000e+00
1.569516637295e+00+j0.000000000000e+00
1.569423776002e+00+j0.000000000000e+00
1.569324114725e+00+j0.000000000000e+00
1.569217141171e+00+j0.000000000000e+00
1.569102301112e+00+j0.000000000000e+00
1.568978994197e+00+j0.000000000000e+00
1.568846569166e+00+j0.000000000000e+00
1.568704318383e+00+j0.000000000000e+00
1.568551471535e+00+j0.000000000000e+00
1.568387188326e+00+j0.000000000000e+00
1.568210549968e+00+j0.000000000000e+00
1.568020549198e+00+j0.000000000000e+00
1.567816078493e+00+j0.000000000000e+00
1.567595916078e+00+j0.000000000000e+00
1.567358709190e+00+j0.000000000000e+00
1.567102953948e+00+j0.000000000000e+00
1.566826970955e+00+j0.000000000000e+00
1.566528875552e+00+j0.000000000000e+00
1.566206541273e+00+j0.000000000000e+00
1.565857554634e+00+j0.000000000000e+00
1.565479158784e+00+j0.000000000000e+00
1.565068182702e+00+j0.000000000000e+00
1.564620951505e+00+j0.000000000000e+00
1.564133171795e+00+j0.000000000000e+00
1.563599783688e+00+j0.000000000000e+00
1.563014767845e+00+j0.000000000000e+00
1.562370890922e+00+j0.000000000000e+00
1.561659365540e+00+j0.000000000000e+00
1.560869389717e+00+j0.000000000000e+00
1.559987513242e+00+j0.000000000000e+00
1.558996750710e+00+j0.000000000000e+00
1.557875315298e+00+j0.000000000000e+00
1.556594770473e+00+j0.000000000000e+00
1.555117262579e+00+j0.000000000000e+00
1.553391254073e+00+j0.000000000000e+00
1.551344717025e+00+j0.000000000000e+00
1.548873830602e+00+j0.000000000000e+00
1.545823291316e+00+j0.000000000000e+00
1.541949953662e+00+j0.000000000000e+00
1.536850639894e+00+j0.000000000000e+00
1.529804856571e+00+j0.000000000000e+00
1.519386917921e+00+j0.000000000000e+00
1.502326340892e+00+j0.000000000000e+00
1.469114568834e+00+j0.000000000000e+00
1.375945008400e+00+j0.000000000000e+00
3.437806468008e-01+j0.000000000000e+00
-1.344800285888e+00+j0.000000000000e+00
-1.461078806423e+00+j0.000000000000e+00
-1.498721168885e+00+j0.000000000000e+00
-1.517344151184e+00+j0.000000000000e+00
-1.528487533580e+00+j0.000000000000e+00
-1.535928179994e+00+j0.000000000000e+00
-1.541266026719e+00+j0.000000000000e+00
-1.545294514060e+00+j0.000000000000e+00
-1.548451711963e+00+j0.000000000000e+00
-1.550999156108e+00+j0.000000000000e+00
-1.553102586798e+00+j0.000000000000e+00
-1.554872103754e+00+j0.000000000000e+00
-1.556383694907e+00+j0.000000000000e+00
-1.557691494571e+00+j0.000000000000e+00
-1.558835115875e+00+j0.000000000000e+00
-1.559844221188e+00+j0.000000000000e+00
-1.560741472124e+00+j0.000000000000e+00
-1.561544491563e+00+j0.000000000000e+00
-1.562267202878e+00+j0.000000000000e+00
-1.562920765048e+00+j0.000000000000e+00
-1.563514238779e+00+j0.000000000000e+00
-1.564055069487e+00+j0.000000000000e+00
-1.564549443059e+00+j0.000000000000e+00
-1.565002551651e+00+j0.000000000000e+00
-1.565418794813e+00+j0.000000000000e+00
-1.565801933452e+00+j0.000000000000e+00
-1.566155208951e+00+j0.000000000000e+00
-1.566481436219e+00+j0.000000000000e+00
-1.566783077050e+00+j0.000000000000e+00
-1.567062298433e+00+j0.000000000000e+00
-1.567321019283e+00+j0.000000000000e+00
-1.567560948166e+00+j0.000000000000e+00
-1.567783613987e+00+j0.000000000000e+00
-1.567990391112e+00+j0.000000000000e+00
-1.568182520100e+00+j0.000000000000e+00
-1.568361124897e+00+j0.000000000000e+00
-1.568527227218e+00+j0.000000000000e+00
-1.568681758631e+00+j0.000000000000e+00
-1.568825570796e+00+j0.000000000000e+00
-1.568959444181e+00+j0.000000000000e+00
-1.569084095530e+00+j0.000000000000e+00
-1.569200184311e+00+j0.000000000000e+00
</dep>
