<Qucs Dataset 1.0.0>
<indep frequency 200>
  +1.00000000000000000000e+05
  +1.02698231463535121293e+05
  +1.05469267457378373365e+05
  +1.08315072416273367708e+05
  +1.11237663779960101238e+05
  +1.14239113423372400575e+05
  +1.17321549125425401144e+05
  +1.20487156077434454346e+05
  +1.23738178432234475622e+05
  +1.27076920895098257461e+05
  +1.30505750357581433491e+05
  +1.34027097575452295132e+05
  +1.37643458891896094428e+05
  +1.41357398007215262624e+05
  +1.45171547796280530747e+05
  +1.49088612175020680297e+05
  +1.53111368017274973681e+05
  +1.57242667123366118176e+05
  +1.61485438241790572647e+05
  +1.65842689145458163694e+05
  +1.70317508763953694142e+05
  +1.74913069373331876704e+05
  +1.79632628844998136628e+05
  +1.84479532955269125523e+05
  +1.89457217757250851719e+05
  +1.94569212016715260688e+05
  +1.99819139713702636072e+05
  +2.05210722611622972181e+05
  +2.10747782895677606575e+05
  +2.16434245882471470395e+05
  +2.22274142802737274906e+05
  +2.28271613659143709810e+05
  +2.34430910161214094842e+05
  +2.40756398739435710013e+05
  +2.47252563640697248047e+05
  +2.53924010107247740962e+05
  +2.60775467641431634547e+05
  +2.67811793358513619751e+05
  +2.75037975429970654659e+05
  +2.82459136619692202657e+05
  +2.90080537915594410151e+05
  +2.97907582259224902373e+05
  +3.05945818376000039279e+05
  +3.14200944708791328594e+05
  +3.22678813457648502663e+05
  +3.31385434728524589445e+05
  +3.40326980793942348100e+05
  +3.49509790468623628840e+05
  +3.58940373603183717933e+05
  +3.68625415699075383600e+05
  +3.78571782648054999299e+05
  +3.88786525599530548789e+05
  +3.99276885959242121316e+05
  +4.10050300522817706224e+05
  +4.21114406747844710480e+05
  +4.32477048168194305617e+05
  +4.44146279954436526168e+05
  +4.56130374624287942424e+05
  +4.68437827907141123433e+05
  +4.81077364766832091846e+05
  +4.94057945586916350294e+05
  +5.07388772522837796714e+05
  +5.21079296025493647903e+05
  +5.35139221540820901282e+05
  +5.49578516390152275562e+05
  +5.64407416836220887490e+05
  +5.79636435339821735397e+05
  +5.95276368012274266221e+05
  +6.11338302268970524892e+05
  +6.27833624689433258027e+05
  +6.44774029089456540532e+05
  +6.62171524811051436700e+05
  +6.80038445236073574051e+05
  +6.98387456529568415135e+05
  +7.17231566619031946175e+05
  +7.36584134415952488780e+05
  +7.56458879286171635613e+05
  +7.76869890775776351802e+05
  +7.97831638599419384263e+05
  +8.19358982898146728985e+05
  +8.41467184774006018415e+05
  +8.64171917108901543543e+05
  +8.87489275675368495286e+05
  +9.11435790547140990384e+05
  +9.36028437817603931762e+05
  +9.61284651634434936568e+05
  +9.87222336558969342150e+05
  +1.01385988025905005634e+06
  +1.04121616654435929377e+06
  +1.06931058875347347930e+06
  +1.09816306350213242695e+06
  +1.12779404480246827006e+06
  +1.15822453856320376508e+06
  +1.18947611748110083863e+06
  +1.22157093633421184495e+06
  +1.25453174768778239377e+06
  +1.28838191802393132821e+06
  +1.32314544430655008182e+06
  +1.35884697099316120148e+06
  +1.39551180750579293817e+06
  +1.43316594617326185107e+06
  +1.47183608065757900476e+06
  +1.51154962487754411995e+06
  +1.55233473244293709286e+06
  +1.59422031661309651099e+06
  +1.63723607079402031377e+06
  +1.68141248958853073418e+06
  +1.72678089041441795416e+06
  +1.77337343570589181036e+06
  +1.82122315571408183314e+06
  +1.87036397192274685949e+06
  +1.92083072109579155222e+06
  +1.97265917997364676557e+06
  +2.02588609063600981608e+06
  +2.08054918654893268831e+06
  +2.13668721931472001597e+06
  +2.19433998614360345528e+06
  +2.25354835806666268036e+06
  +2.31435430890999641269e+06
  +2.37680094505068613216e+06
  +2.44093253597564389929e+06
  +2.50679454566500475630e+06
  +2.57443366482232045382e+06
  +2.64389784397439658642e+06
  +2.71523632746424060315e+06
  +2.78849968836121633649e+06
  +2.86373986431315774098e+06
  +2.94101019436585344374e+06
  +3.02036545677600847557e+06
  +3.10186190784448524937e+06
  +3.18555732179735600948e+06
  +3.27151103174303937703e+06
  +3.35978397173455310985e+06
  +3.45043871996670495719e+06
  +3.54353954313884489238e+06
  +3.63915244201462622732e+06
  +3.73734519821107154712e+06
  +3.83818742225012229756e+06
  +3.94175060290672117844e+06
  +4.04810815788843575865e+06
  +4.15733548588251415640e+06
  +4.26951002000730670989e+06
  +4.38471128270592913032e+06
  +4.50302094212107453495e+06
  +4.62452286999096162617e+06
  +4.74930320110743585974e+06
  +4.87745039437839761376e+06
  +5.00905529553783312440e+06
  +5.14421120154790859669e+06
  +5.28301392673877254128e+06
  +5.42556187073297984898e+06
  +5.57195608820266090333e+06
  +5.72230036050890851766e+06
  +5.87670126927414070815e+06
  +6.03526827193966694176e+06
  +6.19811377936189249158e+06
  +6.36535323550234455615e+06
  +6.53710519926781766117e+06
  +6.71349142855885531753e+06
  +6.89463696658596023917e+06
  +7.08067023051491007209e+06
  +7.27172310250382591039e+06
  +7.46793102319674100727e+06
  +7.66943308773973211646e+06
  +7.87637214438790176064e+06
  +8.08889489577289018780e+06
  +8.30715200290291756392e+06
  +8.53129819196893647313e+06
  +8.76149236403264105320e+06
  +8.99789770767420157790e+06
  +9.24068181467936933041e+06
  +9.49001679884822107852e+06
  +9.74607941800950840116e+06
  +1.00090511993273664266e+07
  +1.02791185679889526218e+07
  +1.05564729793645162135e+07
  +1.08413110547333098948e+07
  +1.11338347206718418747e+07
  +1.14342513522030021995e+07
  +1.17427739198078401387e+07
  +1.20596211404038872570e+07
  +1.23850176323974020779e+07
  +1.27191940749191176146e+07
  +1.30623873713566754013e+07
  +1.34148408172994665802e+07
  +1.37768042730149850249e+07
  +1.41485343405791353434e+07
  +1.45302945457857083529e+07
  +1.49223555249644331634e+07
  +1.53249952168395873159e+07
  +1.57384990595656149089e+07
  +1.61631601930789891630e+07
  +1.65992796669102367014e+07
  +1.70471666536029912531e+07
  +1.75071386678917817771e+07
  +1.79795217917935550213e+07
  +1.84646509057728946209e+07
  +1.89628699261443726718e+07
  +1.94745320488808490336e+07
  +1.99999999999999739230e+07
</indep>
<dep dBS11 frequency>
  -5.57096799068739808598e-11
  -7.28722979931101780659e-11
  -9.53459496015697822439e-11
  -1.24759865987123516205e-10
  -1.63276551493738869892e-10
  -2.13718110452664270671e-10
  -2.79785149517450207552e-10
  -3.66339325611845636855e-10
  -4.79751950309292161555e-10
  -6.28397243332646302711e-10
  -8.23269502133769917725e-10
  -1.07879506562208270542e-09
  -1.41394273724526106951e-09
  -1.85365484695471389484e-09
  -2.43070984971603605988e-09
  -3.18823488073835101580e-09
  -4.18299941596266174308e-09
  -5.48973979863116295824e-09
  -7.20691675650522912835e-09
  -9.46427524717620106982e-09
  -1.24329428955325360364e-08
  -1.63386832287085173183e-08
  -2.14795525127134871507e-08
  -2.82493034991288360467e-08
  -3.71684078418804852765e-08
  -4.89253553534415904611e-08
  -6.44315454595092938363e-08
  -8.48943282658939299903e-08
  -1.11914473013179939219e-07
  -1.47616106416834446266e-07
  -1.94820319157131003437e-07
  -2.57277366882200814608e-07
  -3.39977609115034287055e-07
  -4.49568415843975147656e-07
  -5.94913959260540279849e-07
  -7.87847998269925624799e-07
  -1.04418759060142153102e-06
  -1.38510040601219142344e-06
  -1.83895215815817787634e-06
  -2.44380675741945204460e-06
  -3.25081609293967145860e-06
  -4.32882455941598529264e-06
  -5.77063564899490033435e-06
  -7.70155794233352366011e-06
  -1.02910838226099217451e-05
  -1.37688838452076418211e-05
  -1.84467604276534281665e-05
  -2.47488505307616725947e-05
  -3.32532748860733711805e-05
  -4.47497103867759962108e-05
  -6.03191688350699172882e-05
  -8.14448223164752904690e-05
  -1.10166341826145272077e-04
  -1.49295369286110181373e-04
  -2.02717075943364814263e-04
  -2.75813205300982997731e-04
  -3.76056883692224151912e-04
  -5.13850682984547872494e-04
  -7.03709576731284536244e-04
  -9.65933200192210447699e-04
  -1.32897219414141484588e-03
  -1.83277800040079503346e-03
  -2.53354271326638406242e-03
  -3.51039549691621512867e-03
  -4.87483510502715981783e-03
  -6.78395195176152536465e-03
  -9.45882625123645702503e-03
  -1.32098565415427679492e-02
  -1.84711052085314506033e-02
  -2.58458922730139609159e-02
  -3.61655440125523350292e-02
  -5.05619543428266343676e-02
  -7.05518247353027344593e-02
  -9.81254864573187640664e-02
  -1.35825899500467167647e-01
  -1.86794894594957350265e-01
  -2.54757469544233339231e-01
  -3.43917162301727030727e-01
  -4.58753035856596214082e-01
  -6.03743483376110057215e-01
  -7.83083939726667566106e-01
  -1.00049224530204239336e+00
  -1.25918437495140067561e+00
  -1.56205207683283253672e+00
  -1.91200861576564151711e+00
  -2.31242710197958789564e+00
  -2.76759945959857667219e+00
  -3.28318619428821856232e+00
  -3.86668523090942706233e+00
  -4.52800546257043645682e+00
  -5.28028923667296190558e+00
  -6.14121198478185892355e+00
  -7.13515070959144370732e+00
  -8.29697604087810525186e+00
  -9.67909421696742988672e+00
  -1.13656766978146972491e+01
  -1.35050929046766405861e+01
  -1.63983684108056699813e+01
  -2.08248719179686929692e+01
  -3.04177667845431471960e+01
  -3.02357546024614585178e+01
  -2.07664210974842262658e+01
  -1.63658767148099890676e+01
  -1.34845047927007311017e+01
  -1.13521846904494871922e+01
  -9.67039342215373309841e+00
  -8.29171590050036044772e+00
  -7.13242640775531899777e+00
  -6.14036112076161266771e+00
  -5.28079992288456523397e+00
  -4.52947085322072595659e+00
  -3.86877889655069662211e+00
  -3.28564716097838793729e+00
  -2.77022179387937006467e+00
  -2.31505176883712504576e+00
  -1.91451673583980830351e+00
  -1.56435932373685648855e+00
  -1.26123637316848058454e+00
  -1.00226066145203596136e+00
  -7.84562743547673302480e-01
  -6.04944832554320632845e-01
  -4.59702526453328763623e-01
  -3.44648665201748305442e-01
  -2.55308159201761142310e-01
  -1.87201144463871316237e-01
  -1.36120471336046267030e-01
  -9.83360669979037593791e-02
  -7.07006658001724519469e-02
  -5.06662430424055162947e-02
  -3.62381468242136267621e-02
  -2.58962094015306593109e-02
  -1.85058770395847768664e-02
  -1.32338483609646413025e-02
  -9.47537194808802801793e-03
  -6.79536653616157580726e-03
  -4.88271781759569076242e-03
  -3.51584747266388709247e-03
  -2.53732072963504208182e-03
  -1.83540180685596524685e-03
  -1.33079882148288476153e-03
  -9.67208121111338406037e-04
  -7.04601803066162409375e-04
  -5.14476794435876714356e-04
  -3.76497464912284177455e-04
  -2.76124090836344835385e-04
  -2.02937048990450461753e-04
  -1.49451439821960850238e-04
  -1.10277371195608797725e-04
  -8.15240177114541709124e-05
  -6.03758036710530776028e-05
  -4.47903139314519702432e-05
  -3.32824568241399081493e-05
  -2.47698740834181123090e-05
  -1.84619418305197272598e-05
  -1.37798714566225334187e-05
  -1.02990536897856859838e-05
  -7.70735124678116137746e-06
  -5.77485553520413973750e-06
  -4.33190453955439622549e-06
  -3.25306844969948535072e-06
  -2.44545698590503167918e-06
  -1.84016342532946211199e-06
  -1.38599103696490947787e-06
  -1.04484357355398656821e-06
  -7.88331959597421580321e-07
  -5.95271564721273030773e-07
  -4.49833057222351783756e-07
  -3.40173746586797576600e-07
  -2.57422939836523020721e-07
  -1.94928508024785666345e-07
  -1.47696623423555580657e-07
  -1.11974469130221761316e-07
  -8.49390846331467030333e-08
  -6.44649738716334408206e-08
  -4.89503589184398627658e-08
  -3.71871239916752945710e-08
  -2.82633286778936380879e-08
  -2.14900747719168408947e-08
  -1.63465801063618370450e-08
  -1.24388778489424343856e-08
  -9.46873911902860492201e-09
  -7.21027647340427735686e-09
  -5.49227597987140429105e-09
  -4.18491023083947723893e-09
  -3.18967703246564083677e-09
  -2.43179953975385156021e-09
  -1.85447693612030166364e-09
  -1.41456810360752471770e-09
  -1.07926662175334452592e-09
  -8.23623410314062059957e-10
  -6.28672558824387018911e-10
  -4.79959280714624040470e-10
  -3.66490725024107317160e-10
  -2.79900386649710809389e-10
  -2.13806828579591535842e-10
  -1.63343090088933588525e-10
  -1.24812421834052184450e-10
  -9.53845227002327490683e-11
  -7.29031564720404015990e-11
  -5.57275199650054529280e-11
</dep>
<dep dBS21 frequency>
  -1.08918780774326904748e+02
  -1.07752112852758088479e+02
  -1.06584877087791909389e+02
  -1.05417042360787505118e+02
  -1.04248575845239315640e+02
  -1.03079442912892773165e+02
  -1.01909607034705601336e+02
  -1.00739029676376731004e+02
  -9.95676701881519647941e+01
  -9.83954856886006439254e+01
  -9.72224309420444399166e+01
  -9.60484582293041739831e+01
  -9.48735172114174218905e+01
  -9.36975547859641153536e+01
  -9.25205149356252007919e+01
  -9.13423385685845943271e+01
  -9.01629633503740990363e+01
  -8.89823235267488286127e+01
  -8.78003497371726950860e+01
  -8.66169688184868391545e+01
  -8.54321035983312526696e+01
  -8.42456726778907381004e+01
  -8.30575902035443220939e+01
  -8.18677656270111810954e+01
  -8.06761034536091017344e+01
  -7.94825029782774237219e+01
  -7.82868580090650567627e+01
  -7.70890565778512950601e+01
  -7.58889806381579887784e+01
  -7.46865057500286440018e+01
  -7.34815007521034857518e+01
  -7.22738274212163673837e+01
  -7.10633401200899754713e+01
  -6.98498854340251114081e+01
  -6.86333017978822681471e+01
  -6.74134191151633928030e+01
  -6.61900583716407311385e+01
  -6.49630312467852064628e+01
  -6.37321397272566798620e+01
  -6.24971757279880364422e+01
  -6.12579207279881217119e+01
  -6.00141454299898740032e+01
  -5.87656094555874659591e+01
  -5.75120610906722333766e+01
  -5.62532370999675919165e+01
  -5.49888626344967832438e+01
  -5.37186512621785396959e+01
  -5.24423051597947420532e+01
  -5.11595155147786186944e+01
  -4.98699631982270545905e+01
  -4.85733197870139932206e+01
  -4.72692490338583439780e+01
  -4.59574089109381276330e+01
  -4.46374543867521396123e+01
  -4.33090411394491781039e+01
  -4.19718304653403251336e+01
  -4.06254957119620669914e+01
  -3.92697306547395470488e+01
  -3.79042603495703644967e+01
  -3.65288551356167161543e+01
  -3.51433486384599120811e+01
  -3.37476608378284765877e+01
  -3.23418275177240701623e+01
  -3.09260377046379062449e+01
  -2.95006810031170019215e+01
  -2.80664070143336488172e+01
  -2.66241991877085766305e+01
  -2.51754653548929070439e+01
  -2.37221465723591862229e+01
  -2.22668443518713310425e+01
  -2.08129633137906111529e+01
  -1.93648610413742048308e+01
  -1.79279887630184688874e+01
  -1.65089952509810871106e+01
  -1.51157531675863125997e+01
  -1.37572557838834601540e+01
  -1.24433299303836442107e+01
  -1.11841284850980056120e+01
  -9.98941118494185253951e+00
  -8.86769374576911850738e+00
  -7.82542020376287084105e+00
  -6.86635265896641566741e+00
  -5.99134079595935009621e+00
  -5.19852957126390879949e+00
  -4.48393154346938249688e+00
  -3.84219408235453396827e+00
  -3.26737050757299973824e+00
  -2.75355135248948634796e+00
  -2.29528945043272836202e+00
  -1.88782185850732897592e+00
  -1.52713300730387446791e+00
  -1.20991639315395183019e+00
  -9.33486063440477131792e-01
  -6.95674721904923742954e-01
  -4.94740069505796409288e-01
  -3.29288876502610239339e-01
  -1.98220398500077110704e-01
  -1.00686693391460885261e-01
  -3.60660995014610019638e-02
  -3.94643486843397617303e-03
  -4.11542419029329101243e-03
  -3.65568495893875480829e-02
  -1.01451705055936189370e-01
  -1.99184243668494825874e-01
  -3.30353425827470126297e-01
  -4.95791089975945731272e-01
  -6.96589205584936088655e-01
  -9.34139581594337187198e-01
  -1.21018978579075531243e+00
  -1.52691782714882573480e+00
  -1.88702419099486462528e+00
  -2.29383201207651099551e+00
  -2.75137409225247075995e+00
  -3.26443023884211491747e+00
  -3.83846387361867602550e+00
  -4.47940059993356509693e+00
  -5.19320407404721517963e+00
  -5.98524563425963229690e+00
  -6.85953333873161597012e+00
  -7.81794373754313198788e+00
  -8.85964734178194390779e+00
  -9.98089817208803786741e+00
  -1.11752618833049961466e+01
  -1.24342249020616186783e+01
  -1.37480224771474723866e+01
  -1.51064911407363737794e+01
  -1.64997900274021276346e+01
  -1.79189104526615992086e+01
  -1.93559645851178245834e+01
  -2.08042897847298533520e+01
  -2.22584228018295036122e+01
  -2.37139960437012149441e+01
  -2.51675968168618915399e+01
  -2.66166172690525471012e+01
  -2.80591114815804658633e+01
  -2.94936679808850215068e+01
  -3.09193006591805144012e+01
  -3.23353580354152754239e+01
  -3.37414492324992778549e+01
  -3.51373844193955449100e+01
  -3.65231273640615015097e+01
  -3.78987579071266083020e+01
  -3.92644424427853451220e+01
  -4.06204107974531680725e+01
  -4.19669381851919069959e+01
  -4.33043311730971538509e+01
  -4.46329168044054895859e+01
  -4.59530342033748127051e+01
  -4.72650281283096092011e+01
  -4.85692440526571189707e+01
  -4.98660244440064914784e+01
  -5.11557059816516712658e+01
  -5.24386175090127437670e+01
  -5.37150785608374619073e+01
  -5.49853983392985981027e+01
  -5.62498750399059304073e+01
  -5.75087954491805746216e+01
  -5.87624347525503196721e+01
  -6.00110565039132737297e+01
  -6.12549127185426911524e+01
  -6.24942440590766139508e+01
  -6.37292800907089613816e+01
  -6.49602395867461837042e+01
  -6.61873308696906406112e+01
  -6.74107521761870884802e+01
  -6.86306920366890835794e+01
  -6.98473296627094413225e+01
  -7.10608353361144793325e+01
  -7.22713707961931248747e+01
  -7.34790896212461461801e+01
  -7.46841376022438225846e+01
  -7.58866531067454133108e+01
  -7.70867674317794921990e+01
  -7.82846051447912003596e+01
  -7.94802844120790439320e+01
  -8.06739173143978121061e+01
  -8.18656101495981829430e+01
  -8.30554637223301028826e+01
  -8.42435736209515653172e+01
  -8.54300304818776226057e+01
  -8.66149202416690684458e+01
  -8.77983243772119408277e+01
  -8.89803201343715954863e+01
  -9.01609807455306508928e+01
  -9.13403756364327392703e+01
  -9.25185706227615725084e+01
  -9.36956280968874466453e+01
  -9.48716072052077663557e+01
  -9.60465640165047176424e+01
  -9.72205516817320756218e+01
  -9.83936205856336840725e+01
  -9.95658184905826715294e+01
  -1.00737190673019071596e+02
  -1.01907780052847257934e+02
  -1.03077627316143022540e+02
  -1.04246771031503470795e+02
  -1.05415247760360571760e+02
  -1.06583092161563200762e+02
  -1.07750337090520602601e+02
  -1.08917013693184344447e+02
</dep>
<dep S[1,1] frequency>
  -8.38016655193084769593e-01+j5.45644651404342817536e-01
  -8.29311294489456063417e-01+j5.58786879602092279029e-01
  -8.20147387448585729608e-01+j5.72152307379167224255e-01
  -8.10501877145719640261e-01+j5.85736038770483857796e-01
  -8.00350681063009106175e-01+j5.99532140326422879895e-01
  -7.89668662875316895722e-01+j6.13533538466723760152e-01
  -7.78429606070829116504e-01+j6.27731908005313199439e-01
  -7.66606189928630166186e-01+j6.42117551137450393028e-01
  -7.54169968458578976467e-01+j6.56679266129759131587e-01
  -7.41091353003920483289e-01+j6.71404204900538870149e-01
  -7.27339599315765528154e-01+j6.86277718622437027385e-01
  -7.12882800032785368671e-01+j7.01283190422395619201e-01
  -6.97687883641387895928e-01+j7.16401854195275578086e-01
  -6.81720621153810935056e-01+j7.31612598488327270374e-01
  -6.64945641926805830479e-01+j7.46891754354576109520e-01
  -6.47326460255212898787e-01+j7.62212866015352763505e-01
  -6.28825514616462966089e-01+j7.77546443117174357340e-01
  -6.09404221718183869427e-01+j7.92859693317799596457e-01
  -5.89023047816459977000e-01+j8.08116233893091839846e-01
  -5.67641600132526846778e-01+j8.23275781023439678918e-01
  -5.45218741607024992568e-01+j8.38293815399864028493e-01
  -5.21712732700636894201e-01+j8.53121222790708122474e-01
  -4.97081404486104161400e-01+j8.67703908236140408761e-01
  -4.71282367888528008759e-01+j8.81982382597713554517e-01
  -4.44273264628908204354e-01+j8.95891320293722870360e-01
  -4.16012066221782161879e-01+j9.09359087210549699165e-01
  -3.86457428284730342138e-01+j9.22307238011087604512e-01
  -3.55569108449996673649e-01+j9.34649982382941724168e-01
  -3.23308457342669441914e-01+j9.46293620205401087020e-01
  -2.89638993423461832410e-01+j9.57135946195095010935e-01
  -2.54527074006154263586e-01+j9.67065625352711233376e-01
  -2.17942676470531560007e-01+j9.75961541523312270385e-01
