<Qucs Dataset 24.2.1>
<indep time 207>
0.000000000000e+00
5.025130000000e-06
1.005026000000e-05
2.010052000000e-05
4.020104000000e-05
8.040208000000e-05
1.608041600000e-04
3.216083200000e-04
6.432166400000e-04
1.145729640000e-03
1.648242640000e-03
2.150755640000e-03
2.653268640000e-03
3.155781640000e-03
3.658294640000e-03
4.160807640000e-03
4.663320640000e-03
5.165833640000e-03
5.668346640000e-03
6.170859640000e-03
6.673372640000e-03
7.175885640000e-03
7.678398640000e-03
8.180911640000e-03
8.683424640000e-03
9.185937640000e-03
9.688450640000e-03
1.019096364000e-02
1.069347664000e-02
1.119598964000e-02
1.169850264000e-02
1.220101564000e-02
1.270352864000e-02
1.320604164000e-02
1.370855464000e-02
1.421106764000e-02
1.471358064000e-02
1.521609364000e-02
1.571860664000e-02
1.622111964000e-02
1.672363264000e-02
1.722614564000e-02
1.772865864000e-02
1.823117164000e-02
1.873368464000e-02
1.923619764000e-02
1.973871064000e-02
2.024122364000e-02
2.074373664000e-02
2.124624964000e-02
2.174876264000e-02
2.225127564000e-02
2.275378864000e-02
2.325630164000e-02
2.375881464000e-02
2.426132764000e-02
2.476384064000e-02
2.526635364000e-02
2.576886664000e-02
2.627137964000e-02
2.677389264000e-02
2.727640564000e-02
2.777891864000e-02
2.828143164000e-02
2.878394464000e-02
2.928645764000e-02
2.978897064000e-02
3.029148364000e-02
3.079399664000e-02
3.129650964000e-02
3.179902264000e-02
3.230153564000e-02
3.280404864000e-02
3.330656164000e-02
3.380907464000e-02
3.431158764000e-02
3.481410064000e-02
3.531661364000e-02
3.581912664000e-02
3.632163964000e-02
3.682415264000e-02
3.732666564000e-02
3.782917864000e-02
3.833169164000e-02
3.883420464000e-02
3.933671764000e-02
3.983923064000e-02
4.034174364000e-02
4.084425664000e-02
4.134676964000e-02
4.184928264000e-02
4.235179564000e-02
4.285430864000e-02
4.335682164000e-02
4.385933464000e-02
4.436184764000e-02
4.486436064000e-02
4.536687364000e-02
4.586938664000e-02
4.637189964000e-02
4.687441264000e-02
4.737692564000e-02
4.787943864000e-02
4.838195164000e-02
4.888446464000e-02
4.938697764000e-02
4.988949064000e-02
5.039200364000e-02
5.089451664000e-02
5.139702964000e-02
5.189954264000e-02
5.240205564000e-02
5.290456864000e-02
5.340708164000e-02
5.390959464000e-02
5.441210764000e-02
5.491462064000e-02
5.541713364000e-02
5.591964664000e-02
5.642215964000e-02
5.692467264000e-02
5.742718564000e-02
5.792969864000e-02
5.843221164000e-02
5.893472464000e-02
5.943723764000e-02
5.993975064000e-02
6.044226364000e-02
6.094477664000e-02
6.144728964000e-02
6.194980264000e-02
6.245231564000e-02
6.295482864000e-02
6.345734164000e-02
6.395985464000e-02
6.446236764000e-02
6.496488064000e-02
6.546739364000e-02
6.596990664000e-02
6.647241964000e-02
6.697493264000e-02
6.747744564000e-02
6.797995864000e-02
6.848247164000e-02
6.898498464000e-02
6.948749764000e-02
6.999001064000e-02
7.049252364000e-02
7.099503664000e-02
7.149754964000e-02
7.200006264000e-02
7.250257564000e-02
7.300508864000e-02
7.350760164000e-02
7.401011464000e-02
7.451262764000e-02
7.501514064000e-02
7.551765364000e-02
7.602016664000e-02
7.652267964000e-02
7.702519264000e-02
7.752770564000e-02
7.803021864000e-02
7.853273164000e-02
7.903524464000e-02
7.953775764000e-02
8.004027064000e-02
8.054278364000e-02
8.104529664000e-02
8.154780964000e-02
8.205032264000e-02
8.255283564000e-02
8.305534864000e-02
8.355786164000e-02
8.406037464000e-02
8.456288764000e-02
8.506540064000e-02
8.556791364000e-02
8.607042664000e-02
8.657293964000e-02
8.707545264000e-02
8.757796564000e-02
8.808047864000e-02
8.858299164000e-02
8.908550464000e-02
8.958801764000e-02
9.009053064000e-02
9.059304364000e-02
9.109555664000e-02
9.159806964000e-02
9.210058264000e-02
9.260309564000e-02
9.310560864000e-02
9.360812164000e-02
9.411063464000e-02
9.461314764000e-02
9.511566064000e-02
9.561817364000e-02
9.612068664000e-02
9.662319964000e-02
9.712571264000e-02
9.762822564000e-02
9.813073864000e-02
9.863325164000e-02
9.913576464000e-02
9.963827764000e-02
1.000000000000e-01
</indep>
<dep tran.v(vin) time>
0.000000000000e+00
6.314762917806e-03
1.262951576325e-02
2.525895094770e-02
5.051725726811e-02
1.010293576166e-01
2.020174630344e-01
4.037050095367e-01
8.047739186737e-01
1.419951784141e+00
2.012510796754e+00
2.573011900013e+00
3.092526697813e+00
3.562779677634e+00
3.976280033749e+00
4.326440990597e+00
4.607684725574e+00
4.815531219901e+00
4.946669622234e+00
4.999010988246e+00
4.971721556065e+00
4.865236027529e+00
4.681250643687e+00
4.422696164842e+00
4.093691185569e+00
3.699476528337e+00
3.246331760820e+00
2.741475166721e+00
2.192948763480e+00
1.609490198489e+00
1.000393564390e+00
3.753613505879e-01
-2.556501107149e-01
-8.825892420264e-01
-1.495469335263e+00
-2.084527633125e+00
-2.640380843087e+00
-3.154174606777e+00
-3.617724543805e+00
-4.023646623295e+00
-4.365474786405e+00
-4.637763946191e+00
-4.836176724082e+00
-4.957552541333e+00
-4.999957964865e+00
-4.962717505520e+00
-4.846424378138e+00
-4.652931052052e+00
-4.385319742533e+00
-4.047853313221e+00
-3.645907371650e+00
-3.185884639526e+00
-2.675112961782e+00
-2.121728579064e+00
-1.534546523027e+00
-9.229201989575e-01
-2.965923924784e-01
3.344599263106e-01
9.601845290857e-01
1.570614054366e+00
2.156024780708e+00
2.707091518887e+00
3.215036155727e+00
3.671767483394e+00
4.070010086758e+00
4.403420235738e+00
4.666686936548e+00
4.855616532171e+00
4.967199504414e+00
4.999658413468e+00
4.952476211292e+00
4.826404477834e+00
4.623451448881e+00
4.346850026247e+00
4.001006279875e+00
3.591429262185e+00
3.124643252661e+00
2.608083830584e+00
2.049979431377e+00
1.459220273301e+00
8.452167424136e-01
2.177494916018e-01
-4.131863584716e-01
-1.037540434749e+00
-1.645367207292e+00
-2.226984414714e+00
-2.773127295929e+00
-3.275096171410e+00
-3.724895023079e+00
-4.115358865370e+00
-4.440267878502e+00
-4.694446485922e+00
-4.873845797673e+00
-4.975608106414e+00
-4.998112408734e+00
-4.941000226614e+00
-4.805181317734e+00
-4.592819183667e+00
-4.307296606782e+00
-3.953161764859e+00
-3.536055781753e+00
-3.062622868176e+00
-2.540404484008e+00
-1.977719208034e+00
-1.383530228726e+00
-7.673025668281e-01
-1.388523041003e-01
4.918097800923e-01
1.114637673594e+00
1.719710157505e+00
2.297388844358e+00
2.838471710985e+00
3.334339680401e+00
3.777093917756e+00
4.159681653332e+00
4.476008528297e+00
4.721035673643e+00
4.890859975892e+00
4.982776251005e+00
4.995320336095e+00
4.928292412536e+00
4.782760188936e+00
4.561041893269e+00
4.266669345109e+00
3.904331696179e+00
3.479800735389e+00
2.999838948230e+00
2.472091795034e+00
1.904965924066e+00
1.307495259413e+00
6.891970968050e-01
5.992049965039e-02
-5.703105897481e-01
-1.191457024685e+00
-1.793624370735e+00
-2.367220517276e+00
-2.903108473189e+00
-3.392751912837e+00
-3.828351153838e+00
-4.202967400630e+00
-4.510633274704e+00
-4.746447870821e+00
-4.906654825063e+00
-4.988702151112e+00
-4.991282891635e+00
-4.914355937216e+00
-4.759146681198e+00
-4.528127500009e+00
-4.224978369919e+00
-3.854528247545e+00
-3.422678147910e+00
-2.936307145337e+00
-2.403162794542e+00
-1.831737717426e+00
-1.231134321466e+00
-6.109198046396e-01
1.902624344124e-02
6.486692165827e-01
1.267979336366e+00
1.867091419600e+00
2.436462023892e+00
2.967021468099e+00
3.450318306100e+00
3.878653952501e+00
4.245205315796e+00
4.544133485506e+00
4.770676742001e+00
4.921226407408e+00
4.993384329363e+00
4.986001081921e+00
4.899194275124e+00
4.734346681550e+00
4.494084209701e+00
4.182234075091e+00
3.803763835343e+00
3.364702260417e+00
2.872043298466e+00
2.333634667063e+00
1.758052844470e+00
1.154466452253e+00
5.324902054631e-01
-9.796824314389e-02
-7.268661251874e-01
-1.344185531035e+00
-1.940092988199e+00
-2.505096101766e+00
-3.030194761713e+00
-3.507024508444e+00
-3.927989772871e+00
-4.286384868591e+00
-4.576500808844e+00
-4.793716246738e+00
-4.934571090120e+00
-4.996821618455e+00
-4.979476223748e+00
-4.882811206178e+00
-4.708366372823e+00
-4.458920509597e+00
-4.138447117108e+00
-3.752051115530e+00
-3.305887526744e+00
-2.807063429087e+00
-2.263524746494e+00
-1.683929675404e+00
-1.077510765664e+00
-4.539278523787e-01
-4.898587196589e-15
</dep>
<dep tran.v(vout) time>
0.000000000000e+00
-1.894421297657e-02
-3.788839573617e-02
-7.577654973691e-02
-1.515511655997e-01
-3.030868605023e-01
-6.060499649034e-01
-1.211110184169e+00
-2.414312098773e+00
-4.259838313071e+00
-6.037508240228e+00
-7.719004824019e+00
-9.277542983266e+00
-1.068829627972e+01
-1.192879238608e+01
-1.297927105471e+01
-1.382299888473e+01
-1.444653587356e+01
-1.483994950691e+01
-1.499697297685e+01
-1.491510500777e+01
-1.459564969999e+01
-1.404369575628e+01
-1.326803542239e+01
-1.228102443261e+01
-1.109838519147e+01
-9.738956326636e+00
-8.224392602592e+00
-6.578819975160e+00
-4.828451281662e+00
-3.001168688495e+00
-1.126079547446e+00
7.669472643555e-01
2.647757135051e+00
4.486390060230e+00
6.253557885144e+00
7.921110844816e+00
9.462485970387e+00
1.085313021889e+01
1.207089158632e+01
1.309637197373e+01
1.391323618563e+01
1.450847213836e+01
1.487259813361e+01
1.499981389534e+01
1.488809296419e+01
1.453921497755e+01
1.395873732121e+01
1.315590660397e+01
1.214351136562e+01
1.093767836424e+01
9.557615688115e+00
8.025306784117e+00
6.365160276550e+00
4.603621154595e+00
2.768749521874e+00
8.897736183407e-01
-1.003375765429e+00
-2.880542065089e+00
-4.711823315804e+00
-6.468048469931e+00
-8.121242071693e+00
-9.645069886901e+00
-1.101525838915e+01
-1.220998142035e+01
-1.321020786638e+01
-1.400000480963e+01
-1.456679132935e+01
-1.490153890709e+01
-1.499891524474e+01
-1.485736920440e+01
-1.447915551688e+01
-1.387029886545e+01
-1.304049791675e+01
-1.200297082774e+01
-1.077424468958e+01
-9.373892262415e+00
-7.824220194872e+00
-6.149913694475e+00
-4.377643309330e+00
-2.535640084680e+00
-6.532458618219e-01
1.239554117198e+00
3.112608853812e+00
4.936081877548e+00
6.680926520435e+00
8.319348610393e+00
9.825249213232e+00
1.117464037068e+01
1.234602721200e+01
1.332075035250e+01
1.408328312463e+01
1.462147890710e+01
1.492676461218e+01
1.499427724909e+01
1.482294138808e+01
1.441548629126e+01
1.377840243739e+01
1.292183813299e+01
1.185943785683e+01
1.060812491276e+01
9.187831853201e+00
7.621182967291e+00
5.933133891566e+00
4.150574083883e+00
2.301898492890e+00
4.165552460800e-01
-1.475423438583e+00
-3.343899645183e+00
-5.159109836076e+00
-6.892138964519e+00
-8.515381071432e+00
-1.000297902929e+01
-1.133123642832e+01
-1.247899504401e+01
-1.342797187300e+01
-1.416305036873e+01
-1.467252123759e+01
-1.494826895994e+01
-1.498590106468e+01
-1.478481809834e+01
-1.434822317391e+01
-1.368307094752e+01
-1.279995683550e+01
-1.171294823674e+01
-1.043936044873e+01
-8.999480846767e+00
-7.416245720118e+00
-5.714874912697e+00
-3.922470088360e+00
-2.067583020083e+00
-1.797607799080e-01
1.710924925545e+00
3.574356776627e+00
5.380851588800e+00
7.101633145294e+00
8.709290582406e+00
1.017821502565e+01
1.148500752148e+01
1.260885176648e+01
1.353184569673e+01
1.423928665532e+01
1.471990559557e+01
1.496604658915e+01
1.497378877975e+01
1.474300883961e+01
1.427738293406e+01
1.358432816272e+01
1.267488441022e+01
1.156353848848e+01
1.026799337176e+01
8.808886200468e+00
7.209459545788e+00
5.495191171512e+00
3.693388190844e+00
1.832752082910e+00
-5.707850200972e-02
-1.945999865749e+00
-3.803922793406e+00
-5.601251853793e+00
-7.309356834248e+00
-8.901028800182e+00
-1.035091351465e+01
-1.163591531384e+01
-1.273556500513e+01
-1.363234592713e+01
-1.431197297811e+01
-1.476362016774e+01
-1.498009306772e+01
-1.495794341399e+01
-1.469752403528e+01
-1.420298323272e+01
-1.348219870031e+01
-1.254665203867e+01
-1.141124586104e+01
-1.009406640498e+01
-8.616095431016e+00
-7.000875997685e+00
-5.274137436859e+00
-3.463385503216e+00
-1.597464226532e+00
2.939035538175e-01
2.180589653203e+00
4.032540462944e+00
5.820255683573e+00
7.515258244266e+00
9.090547922947e+00
1.052103144121e+01
1.178392218293e+01
1.285910316936e+01
1.372944750874e+01
1.438109121585e+01
1.480365405574e+01
1.499040489375e+01
1.493836891777e+01
1.464837502503e+01
1.412504261830e+01
1.337670802196e+01
1.241529169016e+01
1.125610832216e+01
9.917622909739e+00
8.421156602636e+00
6.790547077293e+00
5.051768819135e+00
3.232519366916e+00
1.361778110024e+00
1.469570280696e-14
</dep>
