<Qucs Dataset 1.0.0>
<indep time 200>
  +0.00000000000000000000e+00
  +4.02010050251256301213e-01
  +8.04020100502512602425e-01
  +1.20603015075376895915e+00
  +1.60804020100502520485e+00
  +2.01005025125628167260e+00
  +2.41206030150753791830e+00
  +2.81407035175879416400e+00
  +3.21608040201005040970e+00
  +3.61809045226130665540e+00
  +4.02010050251256334519e+00
  +4.42211055276381959089e+00
  +4.82412060301507583659e+00
  +5.22613065326633208230e+00
  +5.62814070351758832800e+00
  +6.03015075376884457370e+00
  +6.43216080402010081940e+00
  +6.83417085427135706510e+00
  +7.23618090452261331080e+00
  +7.63819095477386955650e+00
  +8.04020100502512669038e+00
  +8.44221105527638293609e+00
  +8.84422110552763918179e+00
  +9.24623115577889542749e+00
  +9.64824120603015167319e+00
  +1.00502512562814079189e+01
  +1.04522613065326641646e+01
  +1.08542713567839204103e+01
  +1.12562814070351766560e+01
  +1.16582914572864329017e+01
  +1.20603015075376891474e+01
  +1.24623115577889453931e+01
  +1.28643216080402016388e+01
  +1.32663316582914578845e+01
  +1.36683417085427141302e+01
  +1.40703517587939703759e+01
  +1.44723618090452266216e+01
  +1.48743718592964828673e+01
  +1.52763819095477391130e+01
  +1.56783919597989953587e+01
  +1.60804020100502533808e+01
  +1.64824120603015096265e+01
  +1.68844221105527658722e+01
  +1.72864321608040221179e+01
  +1.76884422110552783636e+01
  +1.80904522613065346093e+01
  +1.84924623115577908550e+01
  +1.88944723618090471007e+01
  +1.92964824120603033464e+01
  +1.96984924623115595921e+01
  +2.01005025125628158378e+01
  +2.05025125628140720835e+01
  +2.09045226130653283292e+01
  +2.13065326633165845749e+01
  +2.17085427135678408206e+01
  +2.21105527638190970663e+01
  +2.25125628140703533120e+01
  +2.29145728643216095577e+01
  +2.33165829145728658034e+01
  +2.37185929648241220491e+01
  +2.41206030150753782948e+01
  +2.45226130653266345405e+01
  +2.49246231155778907862e+01
  +2.53266331658291470319e+01
  +2.57286432160804032776e+01
  +2.61306532663316595233e+01
  +2.65326633165829157690e+01
  +2.69346733668341720147e+01
  +2.73366834170854282604e+01
  +2.77386934673366845061e+01
  +2.81407035175879407518e+01
  +2.85427135678391969975e+01
  +2.89447236180904532432e+01
  +2.93467336683417094889e+01
  +2.97487437185929657346e+01
  +3.01507537688442219803e+01
  +3.05527638190954782260e+01
  +3.09547738693467344717e+01
  +3.13567839195979907174e+01
  +3.17587939698492469631e+01
  +3.21608040201005067615e+01
  +3.25628140703517630072e+01
  +3.29648241206030192529e+01
  +3.33668341708542754986e+01
  +3.37688442211055317443e+01
  +3.41708542713567879900e+01
  +3.45728643216080442357e+01
  +3.49748743718593004814e+01
  +3.53768844221105567271e+01
  +3.57788944723618129728e+01
  +3.61809045226130692186e+01
  +3.65829145728643254643e+01
  +3.69849246231155817100e+01
  +3.73869346733668379557e+01
  +3.77889447236180942014e+01
  +3.81909547738693504471e+01
  +3.85929648241206066928e+01
  +3.89949748743718629385e+01
  +3.93969849246231191842e+01
  +3.97989949748743754299e+01
  +4.02010050251256316756e+01
  +4.06030150753768879213e+01
  +4.10050251256281441670e+01
  +4.14070351758794004127e+01
  +4.18090452261306566584e+01
  +4.22110552763819129041e+01
  +4.26130653266331691498e+01
  +4.30150753768844253955e+01
  +4.34170854271356816412e+01
  +4.38190954773869378869e+01
  +4.42211055276381941326e+01
  +4.46231155778894503783e+01
  +4.50251256281407066240e+01
  +4.54271356783919628697e+01
  +4.58291457286432191154e+01
  +4.62311557788944753611e+01
  +4.66331658291457316068e+01
  +4.70351758793969878525e+01
  +4.74371859296482440982e+01
  +4.78391959798995003439e+01
  +4.82412060301507565896e+01
  +4.86432160804020128353e+01
  +4.90452261306532690810e+01
  +4.94472361809045253267e+01
  +4.98492462311557815724e+01
  +5.02512562814070378181e+01
  +5.06532663316582940638e+01
  +5.10552763819095503095e+01
  +5.14572864321608065552e+01
  +5.18592964824120628009e+01
  +5.22613065326633190466e+01
  +5.26633165829145752923e+01
  +5.30653266331658315380e+01
  +5.34673366834170877837e+01
  +5.38693467336683440294e+01
  +5.42713567839196002751e+01
  +5.46733668341708565208e+01
  +5.50753768844221127665e+01
  +5.54773869346733690122e+01
  +5.58793969849246252579e+01
  +5.62814070351758815036e+01
  +5.66834170854271377493e+01
  +5.70854271356783939950e+01
  +5.74874371859296502407e+01
  +5.78894472361809064864e+01
  +5.82914572864321627321e+01
  +5.86934673366834189778e+01
  +5.90954773869346752235e+01
  +5.94974874371859314692e+01
  +5.98994974874371877149e+01
  +6.03015075376884439606e+01
  +6.07035175879397002063e+01
  +6.11055276381909564520e+01
  +6.15075376884422126977e+01
  +6.19095477386934689434e+01
  +6.23115577889447251891e+01
  +6.27135678391959814348e+01
  +6.31155778894472376805e+01
  +6.35175879396984939262e+01
  +6.39195979899497501719e+01
  +6.43216080402010135231e+01
  +6.47236180904522626633e+01
  +6.51256281407035260145e+01
  +6.55276381909547751548e+01
  +6.59296482412060385059e+01
  +6.63316582914572876462e+01
  +6.67336683417085509973e+01
  +6.71356783919598001376e+01
  +6.75376884422110634887e+01
  +6.79396984924623126290e+01
  +6.83417085427135759801e+01
  +6.87437185929648251204e+01
  +6.91457286432160884715e+01
  +6.95477386934673376118e+01
  +6.99497487437186009629e+01
  +7.03517587939698501032e+01
  +7.07537688442211134543e+01
  +7.11557788944723625946e+01
  +7.15577889447236259457e+01
  +7.19597989949748750860e+01
  +7.23618090452261384371e+01
  +7.27638190954773875774e+01
  +7.31658291457286509285e+01
  +7.35678391959799000688e+01
  +7.39698492462311634199e+01
  +7.43718592964824125602e+01
  +7.47738693467336759113e+01
  +7.51758793969849250516e+01
  +7.55778894472361884027e+01
  +7.59798994974874375430e+01
  +7.63819095477387008941e+01
  +7.67839195979899500344e+01
  +7.71859296482412133855e+01
  +7.75879396984924625258e+01
  +7.79899497487437258769e+01
  +7.83919597989949750172e+01
  +7.87939698492462383683e+01
  +7.91959798994974875086e+01
  +7.95979899497487508597e+01
  +8.00000000000000000000e+01
</indep>
<dep V1.It time>
  +0.00000000000000000000e+00
  +3.47350006430491298204e-03
  -5.87085172309446696320e-03
  -9.71709074091935826045e-03
  -4.45661904707105299001e-03
  +4.97748588866746884823e-03
  +9.75034546691753295500e-03
  +5.38675729574152831886e-03
  -4.02363417720007568446e-03
  -9.66431975723251041055e-03
  -6.25059294902081691997e-03
  +3.01925696491936630672e-03
  +9.46039276827856205621e-03
  +7.03817350573752824328e-03
  -1.97804585011144380344e-03
  -9.14105222256766762612e-03
  -7.73989075241412072953e-03
  +9.12703252331660075738e-04
  +8.71019396555853565867e-03
  +8.34718397859655035498e-03
  +1.63774013030253980496e-04
  -8.17307432059151406367e-03
  -8.85264441452792739951e-03
  -1.23825329141894120190e-03
  +7.53624596379240743738e-03
  +9.25010561585441759558e-03
  +2.29762630308071036378e-03
  -6.80747798328247989003e-03
  -9.53471869177815317675e-03
  -3.32896905952705015469e-03
  +5.99566109921924501880e-03
  +9.70301146009326480335e-03
  +4.31969953180058770237e-03
  -5.11069919998471781930e-03
  -9.75293080657823122093e-03
  -5.25773114692336222820e-03
  +4.16338851813250268585e-03
  +9.68386773227320959978e-03
  +6.13224023063967636771e-03
  -3.16587866187050372482e-03
  -9.49488550813910696380e-03
  -6.93120840936661559289e-03
  +2.12889727583802975536e-03
  +9.19445189871577819862e-03
  +7.64580901301784889024e-03
  -1.06527403768617791487e-03
  -8.77808741294501537755e-03
  -8.26627272677638025300e-03
  -9.87064477432787627852e-06
  +8.25577915362881234462e-03
  +8.78666531413946697016e-03
  +1.08540547056685133392e-03
  -7.63276078606340679239e-03
  -9.19986358930314183924e-03
  -2.14769872077676983457e-03
  +6.91662534695847586869e-03
  +9.50082667460570330642e-03
  +3.18379078100615052135e-03
  -6.11610944378839557073e-03
  -9.68588292332008167496e-03
  -4.18104168241734304445e-03
  +5.24097909682893093458e-03
  +9.75277471249485182481e-03
  +5.12728530502552098946e-03
  -4.30191059706113744510e-03
  -9.70068598517467677034e-03
  -6.01097780020760485281e-03
  +3.31036025906359179793e-03
  +9.53025220602272959969e-03
  +6.82133842170064719906e-03
  -2.27842465789700621831e-03
  -9.24512718745361047890e-03
  -7.54951415446808785092e-03
  +1.21811740542326928972e-03
  +8.84364240537277232490e-03
  +8.18276506415767032609e-03
  -1.43858261688017871052e-04
  -8.33774407169157912023e-03
  -8.71925218101169199891e-03
  -9.32221420587957044432e-04
  +7.72819858104885869243e-03
  +9.14814033600324164053e-03
  +1.99727345999433899063e-03
  -7.02482057044839878351e-03
  -9.46542474997758009891e-03
  -3.03806950038283847537e-03
  +6.23641546361611807947e-03
  +9.66523425844051896350e-03
  +4.04148923010050255961e-03
  -5.37035691146949770852e-03
  -9.75076952231937812976e-03
  -4.99577575428588379486e-03
  +4.43971441854056243781e-03
  +9.71567694314222005114e-03
  +5.88947378876420856580e-03
  -3.45274615936713453329e-03
  -9.56194230843072923154e-03
  -6.71055405356270166795e-03
  +2.42788552451557448908e-03
  +9.29166146122976585597e-03
  +7.45016514336336362762e-03
  -1.37132244786206548143e-03
  -8.90803063690933510932e-03
  -8.09888676603478033234e-03
  +2.98029706275311403584e-04
  +8.41572488495421697219e-03
  +8.64880473960224355201e-03
  +7.78898895820975649407e-04
  -7.82075016719923146735e-03
  -9.09321025282528241918e-03
  -1.84632519774046073048e-03
  +7.13036497174068285843e-03
  +9.42668171042517280545e-03
  +2.89122696360500416185e-03
  -6.35299176187409213312e-03
  -9.64515087465281535650e-03
  -3.90085674916987269409e-03
  +5.49811422493927219601e-03
  +9.74595249641398500562e-03
  +4.86289741630557392077e-03
  -4.57616157456286823391e-03
  -9.72785683037179389754e-03
  -5.76561239785604914138e-03
  +3.59838131782007656853e-03
  +9.59108463747125258858e-03
  +6.59798887972950359737e-03
  -2.57670203947948928125e-03
  -9.33730449170534770875e-03
  -7.34987215347831981255e-03
  +1.52358787736592109219e-03
  +8.96961242407242134722e-03
  +8.01208950025826191488e-03
  -4.51886464141277417132e-04
  -8.49249415206364786923e-03
  -8.57656209490049135924e-03
  -6.25327809422503047392e-04
  +7.91177035543035207799e-03
  +9.03640356478057488188e-03
  +1.69491329753556859740e-03
  -7.23452566591586444800e-03
  -9.38600400120761027556e-03
  -2.74382142300007769373e-03
  +6.46902223715456643760e-03
  +9.62109839839252363458e-03
  +3.75925586536831083870e-03
  -5.62459894921229965753e-03
  -9.73881868508048864630e-03
  -4.72882867167676978343e-03
  +4.71155747744341976690e-03
  +9.73772871403772583010e-03
  +5.64071138523141411836e-03
  -3.74103661557913984639e-03
  -9.61784178254488329729e-03
  -6.48377934873581914660e-03
  +2.72487638626298794842e-03
  +9.38062047016904529406e-03
  +7.24774742134112835018e-03
  -1.67547359681738438145e-03
  -9.02895879578131076160e-03
  -7.92329990367041103738e-03
  +6.05208300732195205764e-04
  +8.56740499474741880326e-03
  +8.50236954754254002642e-03
  +4.71540031489322598608e-04
  -8.00107100776245062923e-03
  -8.97755213079017358457e-03
  -1.54304714500321654702e-03
  +7.33712453394099253789e-03
  +9.34321164792653417741e-03
  +2.59572961106140824919e-03
  -6.58366764980782958466e-03
  -9.59488717793254008992e-03
  -3.61674506342296630049e-03
  +5.74989227161270839012e-03
  +9.72950836535801250049e-03
  +4.59380183810473470551e-03
  -4.84322161994560958925e-03
  -9.74328961637312834787e-03
  -5.51308923577622893297e-03
  +3.88112894880471336403e-03
  +9.63918832414970179479e-03
  +6.36638072000218074864e-03
  -2.87103048872068902786e-03
  -9.41859961052078642485e-03
  -7.14196929195720989214e-03
  +1.82590643836211003609e-03
  +9.08310720238708277363e-03
  +7.83042828082241779142e-03
  -7.58506953899557045430e-04
  -8.63680399236507398419e-03
  -8.42335872226250559347e-03
  -3.17977518748512619304e-04
  +8.08624238093346749123e-03
  +8.91459289686687486598e-03
  +1.39094323178448739040e-03
  -7.43586836762760196307e-03
  -9.29608321152600516890e-03
  -2.44688310364291972468e-03
  +6.69477930299239125389e-03
  +9.56416448986299565227e-03
</dep>
<dep V2.It time>
  +0.00000000000000000000e+00
  +2.19965947650210911363e-03
  -1.75864041410465597737e-02
  -2.09038500733996421288e-02
  -4.63115465108331243738e-03
  +1.59778357698237664930e-02
  +2.16207518117419172921e-02
  +7.00312092098034737198e-03
  -1.41756724095821132897e-02
  -2.20734085006078668834e-02
  -9.29077096998114602966e-03
  +1.21963045221438106530e-02
  +2.22567743627506350879e-02
  +1.14650767901669156656e-02
  -1.00681458901044802723e-02
  -2.21686151884555072977e-02
  -1.34995125940389169850e-02
  +7.81715932104515981438e-03
  +2.18100064895021782119e-02
  +1.53692589604736019188e-02
  -5.47080608129481629764e-03
  -2.11853231692485204085e-02
  -1.70515056230913300550e-02
  +3.05771087821459126854e-03
  +2.03021861508730569468e-02
  +1.85257297479912534655e-02
  -6.07312648011683526607e-04
  -1.91713694038652890383e-02
  -1.97739463049140667961e-02
  -1.85049458882479193021e-03
  +1.78066685058521217977e-02
  +2.07809274786874553786e-02
  +4.28572642446069327488e-03
  -1.62247323411257651782e-02
  -2.15343884433417155633e-02
  -6.66867386323777549401e-03
  +1.44448599899444900946e-02
  +2.20251372327490355096e-02
  +8.97025427291071354718e-03
  -1.24909588398651565100e-02
  -2.22439511342035593777e-02
  -1.11625948414479734400e-02
  +1.03817297250320197954e-02
  +2.21994880261793571530e-02
  +1.32187499565447862115e-02
  -8.14185566554678080697e-03
  -2.18770337700097752820e-02
  -1.51129409464295476340e-02
  +5.81032038701461903130e-03
  +2.12899459330081267106e-02
  +1.68232167387652245538e-02
  -3.40502965233608484441e-03
  -2.04431350463572178433e-02
  -1.83282550396487546596e-02
  +9.58198720263200701998e-04
  +1.93469249027468474800e-02
  +1.96096948964662488868e-02
  +1.50032190853647108900e-03
  -1.80146888910791350136e-02
  -2.06519031811508366192e-02
  -3.94053912309350658910e-03
  +1.64626798351289391209e-02
  +2.14421653090254467344e-02
  +6.33268310783193563024e-03
  -1.47098317146645823222e-02
  -2.19708403523562328941e-02
  -8.64757052413978738459e-03
  +1.27775286773645219141e-02
  +2.22314786564037740468e-02
  +1.08569605371164439045e-02
  -1.06893441595263313099e-02
  -2.22239585806202621932e-02
  -1.29344768152115183885e-02
  +8.46772394247187996930e-03
  +2.19383079249583431980e-02
  +1.48524140032176860809e-02
  -6.14731089937406438573e-03
  -2.13921550971929060048e-02
  -1.65915078009081645716e-02
  +3.75259575080330630772e-03
  +2.05809253040943364310e-02
  +1.81271750301076860212e-02
  -1.30975898359316812736e-03
  -1.95195918391594530616e-02
  -1.94416984396462641516e-02
  -1.14834530402726196774e-03
  +1.82219151199309800648e-02
  +2.05161644894089646718e-02
  +3.59402848121315263846e-03
  -1.66977035347977385837e-02
  -2.13455217038933942053e-02
  -5.99491670361881976575e-03
  +1.49722706771294317152e-02
  +2.19120752203367068212e-02
  +8.32254088497712263273e-03
  -1.30565922000905210859e-02
  -2.22111021058405064266e-02
  -1.05488979112937763388e-02
  +1.09964742309144186683e-02
  +2.22393506978660164541e-02
  +1.26463838231494866970e-02
  -8.79486386500468071692e-03
  -2.19962844021148011542e-02
  -1.45895881768605423928e-02
  +6.48595916738760845666e-03
  +2.14848709583659730482e-02
  +1.63548045437802123947e-02
  -4.09792798582073961727e-03
  -2.07113494357716171335e-02
  -1.79204978878235096640e-02
  +1.65990348411804546427e-03
  +1.96851565323917856998e-02
  +1.92675672856219004636e-02
  +7.98371272488306743011e-04
  -1.84188114507177133627e-02
  -2.03795789511588797127e-02
  -3.24690617255730300597e-03
  +1.69277631677219805861e-02
  +2.12429667223897715445e-02
  +5.65582992760379002495e-03
  -1.52302019625892501309e-02
  -2.18471975636991833092e-02
  -7.99575449157695003488e-03
  +1.33468375015497030950e-02
  +2.21849000654506037233e-02
  +1.02381335849407503064e-02
  -1.13006461869973196671e-02
  -2.22519543726183120780e-02
  -1.23556109495481774435e-02
  +9.11659085325761293916e-03
  +2.20475424455853774575e-02
  +1.43223540855898796159e-02
  -6.82131622855246082249e-03
  -2.15741580399736385121e-02
  -1.61143693993668381259e-02
  +4.44282387842540819195e-03
  +2.08375762836224345809e-02
  +1.77097949168543607190e-02
  -2.01013059623737994422e-03
  -1.98467832220892703710e-02
  -1.90891669923007774312e-02
  -4.47085591845570063264e-04
  +1.86138661919315988313e-02
  +2.02356577580468932620e-02
  +2.89884748859457926085e-03
  -1.71538663593229188942e-02
  -2.11352804187883124010e-02
  -5.31524443726933033816e-03
  +1.54845952229652472631e-02
  +2.17770598857058711451e-02
  +7.66679722138561073330e-03
  -1.36264173198974349738e-02
  -2.21531666687796308102e-02
  -9.92481770106322207237e-03
  +1.16020017851238728401e-02
  +2.22590123938716522023e-02
  +1.20617587986175996834e-02
  -9.43604579591602633803e-03
  -2.20933057792847553635e-02
  -1.40514962079051394100e-02
  +7.15237532246691416066e-03
  +2.16586082252362525924e-02
  +1.58700598777516202476e-02
  -4.78700424153664840649e-03
  -2.09591680682910501410e-02
  -1.74948798971590359363e-02
  +2.36020051297911167762e-03
  +2.00040307471084748137e-02
  +1.89062683641680467916e-02
  +9.53968549097877977286e-05
  -1.88048510913293304148e-02
  -2.00870068223039134614e-02
  -2.54983041363500547924e-03
  +1.73762586825465213669e-02
  +2.10226906659564290181e-02
  +4.97290414050546424746e-03
  -1.57272475797102899431e-02
  -2.16983707751644307182e-02
  -7.33640738627571158820e-03
  +1.38970539922263734700e-02
  +2.21105853234234706051e-02
  +9.60891240924639962462e-03
  -1.18952622579827256566e-02
  -2.22548750050408326862e-02
  -1.17640998297030667519e-02
  +9.74835239168120315512e-03
  +2.21276628217380103014e-02
  +1.37757692551511660289e-02
  -7.48251595982912364596e-03
  -2.17305007186366291871e-02
  -1.56193790062316428813e-02
  +5.12699051948543003954e-03
  +2.10707626698709953039e-02
  +1.72736539360600696580e-02
  -2.70698246637651740443e-03
  -2.01514718667539539931e-02
  -1.87162324197067651832e-02
  +2.54073223272282720190e-04
  +1.89863399977825073051e-02
  +1.99304792680209674760e-02
</dep>
<dep V3.It time>
  +0.00000000000000000000e+00
  -3.92818272002108670460e-02
  -4.67384011258150169899e-02
  -1.04062234537911236371e-02
  +3.56742943242559298889e-02
  +4.83327824961884908173e-02
  +1.57076708304606932343e-02
  -3.16336373566562870097e-02
  -4.93377056151016041285e-02
  -2.08177307799285726819e-02
  +2.72061847571146951663e-02
  +4.97408757558882030914e-02
  +2.56737972603259811955e-02
  -2.24468260067929616108e-02
  -4.95372242215340666260e-02
  -3.02166521934024989715e-02
  +1.74136236549560716180e-02
  +4.87292354911166639142e-02
  +3.43908743024161286939e-02
  -1.21679810491825725338e-02
  -4.73267667508499370599e-02
  -3.81455395050202816787e-02
  +6.77389323550578372618e-03
  +4.53469276397936230105e-02
  +4.14348421697003296837e-02
  -1.29716624071253778042e-03
  -4.28138715180927525994e-02
  -4.42186539286871516108e-02
  -4.19538573866232687715e-03
  +3.97585008042132329042e-02
  +4.64630132304912138452e-02
  +9.63675544662346422742e-03
  -3.62180899761157734651e-02
  -4.81405396590816048175e-02
  -1.49605600335039230775e-02
  +3.22358308352028721799e-02
  +4.92307679656674088142e-02
  +2.01018509037532260020e-02
  -2.78606868198513386858e-02
  -4.97204410685344669329e-02
  -2.49988424620398372311e-02
  +2.31452096007495194963e-02
  +4.96035261657800374824e-02
  +2.95887209898679816311e-02
  -1.81474850308766359752e-02
  -4.88811042937607465042e-02
  -3.38191566459841233550e-02
  +1.29277860586158276079e-02
  +4.75628773452084485651e-02
  +3.76367458377519226165e-02
  -7.55090705216002102546e-03
  -4.56641844999164936425e-02
  -4.09951070358919034131e-02
  +2.08190956168828296760e-03
  +4.32084042187820677183e-02
  +4.38533419466132709519e-02
  +3.41248651348518769466e-03
  -4.02254961814432418499e-02
  -4.61765810814256730255e-02
  -8.86525142009279495947e-03
  +3.67518508459654183462e-02
  +4.79364817172802798462e-02
