<Qucs Dataset 24.2.1>
<indep time 204>
0.000000000000e+00
1.000000000000e-11
2.000000000000e-11
4.000000000000e-11
8.000000000000e-11
1.600000000000e-10
3.200000000000e-10
6.400000000000e-10
1.000000000000e-09
1.064000000000e-09
1.192000000000e-09
1.448000000000e-09
1.960000000000e-09
2.984000000000e-09
5.032000000000e-09
9.128000000000e-09
1.732000000000e-08
3.370400000000e-08
6.647200000000e-08
1.320080000000e-07
2.630800000000e-07
5.252240000000e-07
1.049512000000e-06
2.098088000000e-06
4.195240000000e-06
8.389544000000e-06
1.677815200000e-05
3.355536800000e-05
6.710980000000e-05
1.071098000000e-04
1.471098000000e-04
1.871098000000e-04
2.271098000000e-04
2.671098000000e-04
3.071098000000e-04
3.471098000000e-04
3.871098000000e-04
4.271098000000e-04
4.671098000000e-04
5.071098000000e-04
5.471098000000e-04
5.871098000000e-04
6.271098000000e-04
6.671098000000e-04
7.071098000000e-04
7.471098000000e-04
7.871098000000e-04
8.271098000000e-04
8.671098000000e-04
9.071098000000e-04
9.471098000000e-04
9.871098000000e-04
1.000000000000e-03
1.000000100000e-03
1.000000300000e-03
1.000000700000e-03
1.000001000000e-03
1.000001080000e-03
1.000001240000e-03
1.000001560000e-03
1.000002000000e-03
1.000002064000e-03
1.000002192000e-03
1.000002448000e-03
1.000002960000e-03
1.000003984000e-03
1.000006032000e-03
1.000010128000e-03
1.000018320000e-03
1.000034704000e-03
1.000067472000e-03
1.000133008000e-03
1.000264080000e-03
1.000526224000e-03
1.001050512000e-03
1.002099088000e-03
1.004196240000e-03
1.008390543999e-03
1.016779151998e-03
1.033556367997e-03
1.067110799994e-03
1.107110799994e-03
1.147110799994e-03
1.187110799994e-03
1.227110799994e-03
1.267110799994e-03
1.307110799994e-03
1.347110799994e-03
1.387110799994e-03
1.427110799994e-03
1.467110799994e-03
1.507110799994e-03
1.547110799994e-03
1.587110799994e-03
1.627110799994e-03
1.667110799994e-03
1.707110799994e-03
1.747110799994e-03
1.787110799994e-03
1.827110799994e-03
1.867110799994e-03
1.907110799994e-03
1.947110799994e-03
1.987110799994e-03
2.000000000000e-03
2.000000100000e-03
2.000000300000e-03
2.000000700000e-03
2.000001000000e-03
2.000001080000e-03
2.000001240000e-03
2.000001560000e-03
2.000002200000e-03
2.000003480000e-03
2.000006040000e-03
2.000011160000e-03
2.000021400000e-03
2.000041880000e-03
2.000082840000e-03
2.000164760000e-03
2.000328600000e-03
2.000656280000e-03
2.001311640000e-03
2.002622360000e-03
2.005243800000e-03
2.010486679999e-03
2.020972439998e-03
2.041943959996e-03
2.081943959996e-03
2.121943959996e-03
2.161943959996e-03
2.201943959996e-03
2.241943959996e-03
2.281943959996e-03
2.321943959996e-03
2.361943959996e-03
2.401943959996e-03
2.441943959996e-03
2.481943959996e-03
2.521943959996e-03
2.561943959996e-03
2.601943959996e-03
2.641943959996e-03
2.681943959996e-03
2.721943959996e-03
2.761943959996e-03
2.801943959996e-03
2.841943959996e-03
2.881943959996e-03
2.921943959996e-03
2.961943959996e-03
3.000000000000e-03
3.000000100000e-03
3.000000300000e-03
3.000000700000e-03
3.000001000000e-03
3.000001080000e-03
3.000001240000e-03
3.000001560000e-03
3.000002000000e-03
3.000002064000e-03
3.000002192000e-03
3.000002448000e-03
3.000002960000e-03
3.000003984000e-03
3.000006032000e-03
3.000010128000e-03
3.000018320000e-03
3.000034704000e-03
3.000067472000e-03
3.000133008000e-03
3.000264080000e-03
3.000526224000e-03
3.001050512000e-03
3.002099088000e-03
3.004196240000e-03
3.008390543999e-03
3.016779151998e-03
3.033556367997e-03
3.067110799994e-03
3.107110799994e-03
3.147110799994e-03
3.187110799994e-03
3.227110799994e-03
3.267110799994e-03
3.307110799994e-03
3.347110799994e-03
3.387110799994e-03
3.427110799994e-03
3.467110799994e-03
3.507110799994e-03
3.547110799994e-03
3.587110799994e-03
3.627110799994e-03
3.667110799994e-03
3.707110799994e-03
3.747110799994e-03
3.787110799994e-03
3.827110799994e-03
3.867110799994e-03
3.907110799994e-03
3.947110799994e-03
3.987110799994e-03
4.000000000000e-03
</indep>
<dep tran.v(out1) time>
-1.000000000000e+01
-9.999999998000e+00
-9.999999994000e+00
-9.999999982000e+00
-9.999999934000e+00
-9.999999742000e+00
-9.999998974000e+00
-9.999995902001e+00
-9.999989998003e+00
-9.999988718004e+00
-9.999986158006e+00
-9.999981038010e+00
-9.999970798022e+00
-9.999950318063e+00
-9.999909358206e+00
-9.999827438745e+00
-9.999663600830e+00
-9.999335929026e+00
-9.998680601523e+00
-9.997370010937e+00
-9.994749087419e+00
-9.989508270839e+00
-9.979030758144e+00
-9.958092203820e+00
-9.916280893176e+00
-9.832920775398e+00
-9.667245071785e+00
-9.340028345935e+00
-8.701792500560e+00
-7.968388873087e+00
-7.263746172181e+00
-6.586736518370e+00
-5.936276262748e+00
-5.311324252444e+00
-4.710880164113e+00
-4.133982902775e+00
-3.579709063451e+00
-3.047171453119e+00
-2.535517670644e+00
-2.043928742383e+00
-1.571617811310e+00
-1.117828877533e+00
-6.818355882177e-01
-2.629400749543e-01
1.395281632792e-01
5.262133333467e-01
8.977343790978e-01
1.254685972074e+00
1.597639463366e+00
1.927143798136e+00
2.243726394287e+00
2.547893986668e+00
2.643337977536e+00
2.643338713202e+00
2.643340184534e+00
2.643343127197e+00
2.643345334194e+00
2.643345794726e+00
2.643346459791e+00
2.643346253920e+00
2.643342626848e+00
2.643341817675e+00
2.643340199327e+00
2.643336962632e+00
2.643330489245e+00
2.643317542482e+00
2.643291648994e+00
2.643239862177e+00
2.643136289180e+00
2.642929145732e+00
2.642514869018e+00
2.641686356312e+00
2.640029493782e+00
2.636716420142e+00
2.630092877686e+00
2.616856205247e+00
2.590424455723e+00
2.537726902850e+00
2.432992116195e+00
2.226136353857e+00
1.822664428626e+00
1.359030529464e+00
9.135783518381e-01
4.855948870601e-01
7.439508756754e-02
-3.206792295920e-01
-7.002604362746e-01
-1.064956105440e+00
-1.415349983658e+00
-1.752002925476e+00
-2.075453791143e+00
-2.386220309138e+00
-2.684799904858e+00
-2.971670496824e+00
-3.247291261655e+00
-3.512103369041e+00
-3.766530687902e+00
-4.010980464847e+00
-4.245843976029e+00
-4.471497153440e+00
-4.688301186638e+00
-4.896603100888e+00
-5.096736312618e+00
-5.289021163103e+00
-5.349353096380e+00
-5.349353361444e+00
-5.349353491574e+00
-5.349351351833e+00
-5.349347647028e+00
-5.349346419080e+00
-5.349343963185e+00
-5.349339051396e+00
-5.349329227822e+00
-5.349309580693e+00
-5.349270286511e+00
-5.349191698448e+00
-5.349034523530e+00
-5.348720178522e+00
-5.348091507818e+00
-5.346834243660e+00
-5.344320024302e+00
-5.339292821174e+00
-5.329243355241e+00
-5.309164168488e+00
-5.269084646205e+00
-5.189239975716e+00
-5.030799932894e+00
-4.718852220361e+00
-4.141642329366e+00
-3.587068120372e+00
-3.054241919573e+00
-2.542310863903e+00
-2.050455535907e+00
-1.577888652146e+00
-1.123853803042e+00
-6.876242421385e-01
-2.685017228390e-01
1.341846192332e-01
5.210793400475e-01
8.928017188692e-01
1.249946749502e+00
1.593086092659e+00
1.922768990986e+00
2.239523148202e+00
2.543855573763e+00
2.836253394399e+00
3.117184633835e+00
3.387098961920e+00
3.646428414393e+00
3.895588084417e+00
4.134976786989e+00
4.354008603227e+00
4.354009167826e+00
4.354010297024e+00
4.354012555419e+00
4.354014249215e+00
4.354014572894e+00
4.354014964252e+00
4.354014210967e+00
4.354009831202e+00
4.354008912545e+00
4.354007075232e+00
4.354003400607e+00
4.353996051359e+00
4.353981352874e+00
4.353951955951e+00
4.353893162284e+00
4.353775575673e+00
4.353540405340e+00
4.353070076234e+00
4.352129464256e+00
4.350248425219e+00
4.346487086702e+00
4.338967366930e+00
4.323939748686e+00
4.293931735479e+00
4.234104108060e+00
4.115198514683e+00
3.880354792269e+00
3.422292383276e+00
2.895927976089e+00
2.390205310360e+00
1.904314906032e+00
1.437479027364e+00
9.889504380555e-01
5.580112051906e-01
1.439715500851e-01
-2.538312558006e-01
-6.360339516515e-01
-1.003248306489e+00
-1.356062098391e+00
-1.695040055317e+00
-2.020724759030e+00
-2.333637513578e+00
-2.634279179712e+00
-2.923130976586e+00
-3.200655252014e+00
-3.467296222523e+00
-3.723480684385e+00
-3.969618696762e+00
-4.206104238066e+00
-4.433315836573e+00
-4.651617176315e+00
-4.720112129663e+00
</dep>
<dep tran.v(out2) time>
0.000000000000e+00
1.000000000000e-07
2.000000000000e-07
4.000000000000e-07
8.000000000000e-07
1.600000000000e-06
3.200000000000e-06
6.400000000000e-06
1.000000000000e-05
1.064000000000e-05
1.192000000000e-05
1.448000000000e-05
1.960000000000e-05
2.984000000000e-05
5.032000000000e-05
9.128000000000e-05
1.732000000000e-04
3.370400000000e-04
6.647200000000e-04
1.320080000000e-03
2.630800000000e-03
5.252240000000e-03
1.049512000000e-02
2.098088000000e-02
4.195240000000e-02
8.389544000000e-02
1.677815200000e-01
3.355536800000e-01
6.710980000000e-01
1.071098000000e+00
1.471098000000e+00
1.871098000000e+00
2.271098000000e+00
2.671098000000e+00
3.071098000000e+00
3.471098000000e+00
3.871098000000e+00
4.271098000000e+00
4.671098000000e+00
5.071098000000e+00
5.471098000000e+00
5.871098000000e+00
6.271098000000e+00
6.671098000000e+00
7.071098000000e+00
7.471098000000e+00
7.871098000000e+00
8.271098000000e+00
8.671098000000e+00
9.071098000000e+00
9.471098000000e+00
9.871098000000e+00
1.000000000000e+01
1.000000000000e+01
1.000000000000e+01
1.000000000000e+01
1.000000000000e+01
9.999999200000e+00
9.999997600000e+00
9.999994400000e+00
9.999990000000e+00
9.999989360000e+00
9.999988080000e+00
9.999985520000e+00
9.999980400000e+00
9.999970160000e+00
9.999949680000e+00
9.999908720000e+00
9.999826800000e+00
9.999662960000e+00
9.999335280000e+00
9.998679920000e+00
9.997369200000e+00
9.994747760000e+00
9.989504880001e+00
9.979019120002e+00
9.958047600004e+00
9.916104560008e+00
9.832218480016e+00
9.664446320031e+00
9.328902000062e+00
8.928902000062e+00
8.528902000062e+00
8.128902000062e+00
7.728902000062e+00
7.328902000062e+00
6.928902000062e+00
6.528902000062e+00
6.128902000062e+00
5.728902000062e+00
5.328902000062e+00
4.928902000062e+00
4.528902000062e+00
4.128902000062e+00
3.728902000062e+00
3.328902000062e+00
2.928902000062e+00
2.528902000062e+00
2.128902000062e+00
1.728902000062e+00
1.328902000062e+00
9.289020000622e-01
5.289020000622e-01
1.289020000622e-01
9.999999999073e-06
1.000000000341e-06
3.000000001023e-06
7.000000002387e-06
9.999999999073e-06
1.080000000021e-05
1.239999999816e-05
1.559999999838e-05
2.199999999883e-05
3.479999999972e-05
6.039999999718e-05
1.115999999921e-04
2.139999999819e-04
4.187999999615e-04
8.283999999251e-04
1.647599999848e-03
3.285999999698e-03
6.562799999394e-03
1.311639999879e-02
2.622359999757e-02
5.243799999514e-02
1.048667999903e-01
2.097243999806e-01
4.194395999611e-01
8.194395999611e-01
1.219439599961e+00
1.619439599961e+00
2.019439599961e+00
2.419439599961e+00
2.819439599961e+00
3.219439599961e+00
3.619439599961e+00
4.019439599961e+00
4.419439599961e+00
4.819439599961e+00
5.219439599961e+00
5.619439599961e+00
6.019439599961e+00
6.419439599961e+00
6.819439599961e+00
7.219439599961e+00
7.619439599961e+00
8.019439599961e+00
8.419439599961e+00
8.819439599961e+00
9.219439599961e+00
9.619439599961e+00
1.000000000000e+01
1.000000000000e+01
1.000000000000e+01
1.000000000000e+01
1.000000000000e+01
9.999999200000e+00
9.999997600000e+00
9.999994400000e+00
9.999990000000e+00
9.999989360000e+00
9.999988080000e+00
9.999985520000e+00
9.999980400000e+00
9.999970160000e+00
9.999949680000e+00
9.999908720000e+00
9.999826800000e+00
9.999662960000e+00
9.999335280000e+00
9.998679920000e+00
9.997369200000e+00
9.994747760000e+00
9.989504880001e+00
9.979019120002e+00
9.958047600004e+00
9.916104560008e+00
9.832218480016e+00
9.664446320031e+00
9.328902000062e+00
8.928902000062e+00
8.528902000062e+00
8.128902000062e+00
7.728902000062e+00
7.328902000062e+00
6.928902000062e+00
6.528902000062e+00
6.128902000062e+00
5.728902000062e+00
5.328902000062e+00
4.928902000062e+00
4.528902000062e+00
4.128902000062e+00
3.728902000062e+00
3.328902000062e+00
2.928902000062e+00
2.528902000062e+00
2.128902000062e+00
1.728902000062e+00
1.328902000062e+00
9.289020000622e-01
5.289020000622e-01
1.289020000622e-01
0.000000000000e+00
</dep>
<dep tran.v(out3) time>
0.000000000000e+00
1.000000000000e-07
2.000000000000e-07
4.000000000000e-07
8.000000000000e-07
1.600000000000e-06
3.200000000000e-06
6.400000000000e-06
1.000000000000e-05
1.064000000000e-05
1.192000000000e-05
1.448000000000e-05
1.960000000000e-05
2.984000000000e-05
5.032000000000e-05
9.128000000000e-05
1.732000000000e-04
3.370400000000e-04
6.647200000000e-04
1.320080000000e-03
2.630800000000e-03
5.252240000000e-03
1.049512000000e-02
2.098088000000e-02
4.195240000000e-02
8.389544000000e-02
1.677815200000e-01
3.355536800000e-01
6.710980000000e-01
1.071098000000e+00
1.471098000000e+00
1.871098000000e+00
2.271098000000e+00
2.671098000000e+00
3.071098000000e+00
3.471098000000e+00
3.871098000000e+00
4.271098000000e+00
4.671098000000e+00
5.071098000000e+00
5.471098000000e+00
5.871098000000e+00
6.271098000000e+00
6.671098000000e+00
7.071098000000e+00
7.471098000000e+00
7.871098000000e+00
8.271098000000e+00
8.671098000000e+00
9.071098000000e+00
9.471098000000e+00
9.871098000000e+00
1.000000000000e+01
1.000000000000e+01
1.000000000000e+01
1.000000000000e+01
1.000000000000e+01
9.999999200000e+00
9.999997600000e+00
9.999994400000e+00
9.999990000000e+00
9.999989360000e+00
9.999988080000e+00
9.999985520000e+00
9.999980400000e+00
9.999970160000e+00
9.999949680000e+00
9.999908720000e+00
9.999826800000e+00
9.999662960000e+00
9.999335280000e+00
9.998679920000e+00
9.997369200000e+00
9.994747760000e+00
9.989504880001e+00
9.979019120002e+00
9.958047600004e+00
9.916104560008e+00
9.832218480016e+00
9.664446320031e+00
9.328902000062e+00
8.928902000062e+00
8.528902000062e+00
8.128902000062e+00
7.728902000062e+00
7.328902000062e+00
6.928902000062e+00
6.528902000062e+00
6.128902000062e+00
5.728902000062e+00
5.328902000062e+00
4.928902000062e+00
4.528902000062e+00
4.128902000062e+00
3.728902000062e+00
3.328902000062e+00
2.928902000062e+00
2.528902000062e+00
2.128902000062e+00
1.728902000062e+00
1.328902000062e+00
9.289020000622e-01
5.289020000622e-01
1.289020000622e-01
9.999999999621e-06
1.000000000341e-06
3.000000001023e-06
7.000000002387e-06
9.999999999073e-06
1.080000000021e-05
1.239999999816e-05
1.559999999838e-05
2.199999999883e-05
3.479999999972e-05
6.039999999718e-05
1.115999999921e-04
2.139999999819e-04
4.187999999615e-04
8.283999999251e-04
1.647599999848e-03
3.285999999698e-03
6.562799999394e-03
1.311639999879e-02
2.622359999757e-02
5.243799999514e-02
1.048667999903e-01
2.097243999806e-01
4.194395999611e-01
8.194395999611e-01
1.219439599961e+00
1.619439599961e+00
2.019439599961e+00
2.419439599961e+00
2.819439599961e+00
3.219439599961e+00
3.619439599961e+00
4.019439599961e+00
4.419439599961e+00
4.819439599961e+00
5.219439599961e+00
5.619439599961e+00
6.019439599961e+00
6.419439599961e+00
6.819439599961e+00
7.219439599961e+00
7.619439599961e+00
8.019439599961e+00
8.419439599961e+00
8.819439599961e+00
9.219439599961e+00
9.619439599961e+00
1.000000000000e+01
1.000000000000e+01
1.000000000000e+01
1.000000000000e+01
1.000000000000e+01
9.999999200000e+00
9.999997600000e+00
9.999994400000e+00
9.999990000000e+00
9.999989360000e+00
9.999988080000e+00
9.999985520000e+00
9.999980400000e+00
9.999970160000e+00
9.999949680000e+00
9.999908720000e+00
9.999826800000e+00
9.999662960000e+00
9.999335280000e+00
9.998679920000e+00
9.997369200000e+00
9.994747760000e+00
9.989504880001e+00
9.979019120002e+00
9.958047600004e+00
9.916104560008e+00
9.832218480016e+00
9.664446320031e+00
9.328902000062e+00
8.928902000062e+00
8.528902000062e+00
8.128902000062e+00
7.728902000062e+00
7.328902000062e+00
6.928902000062e+00
6.528902000062e+00
6.128902000062e+00
5.728902000062e+00
5.328902000062e+00
4.928902000062e+00
4.528902000062e+00
4.128902000062e+00
3.728902000062e+00
3.328902000062e+00
2.928902000062e+00
2.528902000062e+00
2.128902000062e+00
1.728902000062e+00
1.328902000062e+00
9.289020000622e-01
5.289020000622e-01
1.289020000622e-01
0.000000000000e+00
</dep>
