<Qucs Dataset 24.2.1>
<indep time 207>
0.000000000000e+00
5.025130000000e-04
1.005026000000e-03
2.010052000000e-03
4.020104000000e-03
8.040208000000e-03
1.608041600000e-02
3.216083200000e-02
6.432166400000e-02
1.145729640000e-01
1.648242640000e-01
2.150755640000e-01
2.653268640000e-01
3.155781640000e-01
3.658294640000e-01
4.160807640000e-01
4.663320640000e-01
5.165833640000e-01
5.668346640000e-01
6.170859640000e-01
6.673372640000e-01
7.175885640000e-01
7.678398640000e-01
8.180911640000e-01
8.683424640000e-01
9.185937640000e-01
9.688450640000e-01
1.019096364000e+00
1.069347664000e+00
1.119598964000e+00
1.169850264000e+00
1.220101564000e+00
1.270352864000e+00
1.320604164000e+00
1.370855464000e+00
1.421106764000e+00
1.471358064000e+00
1.521609364000e+00
1.571860664000e+00
1.622111964000e+00
1.672363264000e+00
1.722614564000e+00
1.772865864000e+00
1.823117164000e+00
1.873368464000e+00
1.923619764000e+00
1.973871064000e+00
2.024122364000e+00
2.074373664000e+00
2.124624964000e+00
2.174876264000e+00
2.225127564000e+00
2.275378864000e+00
2.325630164000e+00
2.375881464000e+00
2.426132764000e+00
2.476384064000e+00
2.526635364000e+00
2.576886664000e+00
2.627137964000e+00
2.677389264000e+00
2.727640564000e+00
2.777891864000e+00
2.828143164000e+00
2.878394464000e+00
2.928645764000e+00
2.978897064000e+00
3.029148364000e+00
3.079399664000e+00
3.129650964000e+00
3.179902264000e+00
3.230153564000e+00
3.280404864000e+00
3.330656164000e+00
3.380907464000e+00
3.431158764000e+00
3.481410064000e+00
3.531661364000e+00
3.581912664000e+00
3.632163964000e+00
3.682415264000e+00
3.732666564000e+00
3.782917864000e+00
3.833169164000e+00
3.883420464000e+00
3.933671764000e+00
3.983923064000e+00
4.034174364000e+00
4.084425664000e+00
4.134676964000e+00
4.184928264000e+00
4.235179564000e+00
4.285430864000e+00
4.335682164000e+00
4.385933464000e+00
4.436184764000e+00
4.486436064000e+00
4.536687364000e+00
4.586938664000e+00
4.637189964000e+00
4.687441264000e+00
4.737692564000e+00
4.787943864000e+00
4.838195164000e+00
4.888446464000e+00
4.938697764000e+00
4.988949064000e+00
5.039200364000e+00
5.089451664000e+00
5.139702964000e+00
5.189954264000e+00
5.240205564000e+00
5.290456864000e+00
5.340708164000e+00
5.390959464000e+00
5.441210764000e+00
5.491462064000e+00
5.541713364000e+00
5.591964664000e+00
5.642215964000e+00
5.692467264000e+00
5.742718564000e+00
5.792969864000e+00
5.843221164000e+00
5.893472464000e+00
5.943723764000e+00
5.993975064000e+00
6.044226364000e+00
6.094477664000e+00
6.144728964000e+00
6.194980264000e+00
6.245231564000e+00
6.295482864000e+00
6.345734164000e+00
6.395985464000e+00
6.446236764000e+00
6.496488064000e+00
6.546739364000e+00
6.596990664000e+00
6.647241964000e+00
6.697493264000e+00
6.747744564000e+00
6.797995864000e+00
6.848247164000e+00
6.898498464000e+00
6.948749764000e+00
6.999001064000e+00
7.049252364000e+00
7.099503664000e+00
7.149754964000e+00
7.200006264000e+00
7.250257564000e+00
7.300508864000e+00
7.350760164000e+00
7.401011464000e+00
7.451262764000e+00
7.501514064000e+00
7.551765364000e+00
7.602016664000e+00
7.652267964000e+00
7.702519264000e+00
7.752770564000e+00
7.803021864000e+00
7.853273164000e+00
7.903524464000e+00
7.953775764000e+00
8.004027064000e+00
8.054278364000e+00
8.104529664000e+00
8.154780964000e+00
8.205032264000e+00
8.255283564000e+00
8.305534864000e+00
8.355786164000e+00
8.406037464000e+00
8.456288764000e+00
8.506540064000e+00
8.556791364000e+00
8.607042664000e+00
8.657293964000e+00
8.707545264000e+00
8.757796564000e+00
8.808047864000e+00
8.858299164000e+00
8.908550464000e+00
8.958801764000e+00
9.009053064000e+00
9.059304364000e+00
9.109555664000e+00
9.159806964000e+00
9.210058264000e+00
9.260309564000e+00
9.310560864000e+00
9.360812164000e+00
9.411063464000e+00
9.461314764000e+00
9.511566064000e+00
9.561817364000e+00
9.612068664000e+00
9.662319964000e+00
9.712571264000e+00
9.762822564000e+00
9.813073864000e+00
9.863325164000e+00
9.913576464000e+00
9.963827764000e+00
1.000000000000e+01
</indep>
<dep tran.v(vin1) time>
0.000000000000e+00
0.000000000000e+00
0.000000000000e+00
0.000000000000e+00
0.000000000000e+00
0.000000000000e+00
0.000000000000e+00
0.000000000000e+00
0.000000000000e+00
0.000000000000e+00
0.000000000000e+00
0.000000000000e+00
0.000000000000e+00
0.000000000000e+00
0.000000000000e+00
0.000000000000e+00
0.000000000000e+00
0.000000000000e+00
0.000000000000e+00
0.000000000000e+00
0.000000000000e+00
0.000000000000e+00
0.000000000000e+00
0.000000000000e+00
0.000000000000e+00
0.000000000000e+00
0.000000000000e+00
1.500000000000e+00
1.500000000000e+00
1.500000000000e+00
1.500000000000e+00
1.500000000000e+00
1.500000000000e+00
1.500000000000e+00
1.500000000000e+00
1.500000000000e+00
1.500000000000e+00
1.500000000000e+00
1.500000000000e+00
1.500000000000e+00
1.500000000000e+00
1.500000000000e+00
1.500000000000e+00
1.500000000000e+00
1.500000000000e+00
1.500000000000e+00
1.500000000000e+00
4.500000000000e+00
4.500000000000e+00
4.500000000000e+00
4.500000000000e+00
4.500000000000e+00
4.500000000000e+00
4.500000000000e+00
4.500000000000e+00
4.500000000000e+00
4.500000000000e+00
4.500000000000e+00
4.500000000000e+00
4.500000000000e+00
4.500000000000e+00
4.500000000000e+00
4.500000000000e+00
4.500000000000e+00
4.500000000000e+00
4.500000000000e+00
4.500000000000e+00
1.500000000000e+00
1.500000000000e+00
1.500000000000e+00
1.500000000000e+00
1.500000000000e+00
1.500000000000e+00
1.500000000000e+00
1.500000000000e+00
1.500000000000e+00
1.500000000000e+00
1.500000000000e+00
1.500000000000e+00
1.500000000000e+00
1.500000000000e+00
1.500000000000e+00
1.500000000000e+00
1.500000000000e+00
1.500000000000e+00
1.500000000000e+00
1.500000000000e+00
0.000000000000e+00
0.000000000000e+00
0.000000000000e+00
0.000000000000e+00
0.000000000000e+00
0.000000000000e+00
0.000000000000e+00
0.000000000000e+00
0.000000000000e+00
0.000000000000e+00
0.000000000000e+00
0.000000000000e+00
0.000000000000e+00
0.000000000000e+00
0.000000000000e+00
0.000000000000e+00
0.000000000000e+00
0.000000000000e+00
0.000000000000e+00
0.000000000000e+00
6.000000000000e+00
6.000000000000e+00
6.000000000000e+00
6.000000000000e+00
6.000000000000e+00
6.000000000000e+00
6.000000000000e+00
6.000000000000e+00
6.000000000000e+00
6.000000000000e+00
6.000000000000e+00
6.000000000000e+00
6.000000000000e+00
6.000000000000e+00
6.000000000000e+00
6.000000000000e+00
6.000000000000e+00
6.000000000000e+00
6.000000000000e+00
6.000000000000e+00
0.000000000000e+00
0.000000000000e+00
0.000000000000e+00
0.000000000000e+00
0.000000000000e+00
0.000000000000e+00
0.000000000000e+00
0.000000000000e+00
0.000000000000e+00
0.000000000000e+00
0.000000000000e+00
0.000000000000e+00
0.000000000000e+00
0.000000000000e+00
0.000000000000e+00
0.000000000000e+00
0.000000000000e+00
0.000000000000e+00
0.000000000000e+00
0.000000000000e+00
0.000000000000e+00
0.000000000000e+00
0.000000000000e+00
0.000000000000e+00
0.000000000000e+00
0.000000000000e+00
0.000000000000e+00
0.000000000000e+00
0.000000000000e+00
0.000000000000e+00
0.000000000000e+00
0.000000000000e+00
0.000000000000e+00
0.000000000000e+00
0.000000000000e+00
0.000000000000e+00
0.000000000000e+00
0.000000000000e+00
0.000000000000e+00
0.000000000000e+00
0.000000000000e+00
0.000000000000e+00
0.000000000000e+00
0.000000000000e+00
0.000000000000e+00
0.000000000000e+00
0.000000000000e+00
0.000000000000e+00
0.000000000000e+00
0.000000000000e+00
0.000000000000e+00
0.000000000000e+00
0.000000000000e+00
0.000000000000e+00
0.000000000000e+00
0.000000000000e+00
0.000000000000e+00
0.000000000000e+00
0.000000000000e+00
0.000000000000e+00
0.000000000000e+00
0.000000000000e+00
0.000000000000e+00
0.000000000000e+00
0.000000000000e+00
0.000000000000e+00
0.000000000000e+00
0.000000000000e+00
0.000000000000e+00
0.000000000000e+00
0.000000000000e+00
0.000000000000e+00
0.000000000000e+00
0.000000000000e+00
0.000000000000e+00
0.000000000000e+00
0.000000000000e+00
0.000000000000e+00
0.000000000000e+00
0.000000000000e+00
</dep>
<dep tran.v(vin2) time>
0.000000000000e+00
7.537695000001e-04
1.507539000000e-03
3.015078000000e-03
6.030156000000e-03
1.206031200000e-02
2.412062400000e-02
4.824124800000e-02
9.648249600000e-02
1.718594460000e-01
2.472363960000e-01
3.226133460000e-01
3.979902960000e-01
4.733672460000e-01
5.487441960000e-01
6.241211460000e-01
6.994980960000e-01
7.748750460000e-01
8.502519960000e-01
9.256289460000e-01
1.001005896000e+00
1.076382846000e+00
1.151759796000e+00
1.227136746000e+00
1.302513696000e+00
1.377890646000e+00
1.453267596000e+00
1.557289092000e+00
1.708042992000e+00
1.858796892000e+00
2.009550792000e+00
2.160304692000e+00
2.311058592000e+00
2.461812492000e+00
2.612566392000e+00
2.763320292000e+00
2.914074192000e+00
3.064828092000e+00
3.215581992000e+00
3.366335892000e+00
3.517089792000e+00
3.667843692000e+00
3.818597592000e+00
3.969351492000e+00
4.120105392000e+00
4.270859292000e+00
4.421613192000e+00
4.427632908000e+00
4.276879008000e+00
4.126125108000e+00
3.975371208000e+00
3.824617308000e+00
3.673863408000e+00
3.523109508000e+00
3.372355608000e+00
3.221601708000e+00
3.070847808000e+00
2.920093908000e+00
2.769340008000e+00
2.618586108000e+00
2.467832208000e+00
2.317078308000e+00
2.166324408000e+00
2.015570508000e+00
1.864816608000e+00
1.714062708000e+00
1.563308808000e+00
1.456277454000e+00
1.380900504000e+00
1.305523554000e+00
1.230146604000e+00
1.154769654000e+00
1.079392704000e+00
1.004015754000e+00
9.286388040000e-01
8.532618540000e-01
7.778849040000e-01
7.025079540000e-01
6.271310040000e-01
5.517540540000e-01
4.763771040000e-01
4.010001540000e-01
3.256232040000e-01
2.502462540000e-01
1.748693040000e-01
9.949235399999e-02
2.411540399999e-02
2.050461840001e-01
5.065539840001e-01
8.080617840001e-01
1.109569584000e+00
1.411077384000e+00
1.712585184000e+00
2.014092984000e+00
2.315600784000e+00
2.617108584000e+00
2.918616384000e+00
3.220124184000e+00
3.521631984000e+00
3.823139784000e+00
4.124647584000e+00
4.426155384000e+00
4.727663184000e+00
5.029170984000e+00
5.330678784000e+00
5.632186584000e+00
5.933694384000e+00
6.117601092000e+00
6.268354992000e+00
6.419108892000e+00
6.569862792000e+00
6.720616692000e+00
6.871370592000e+00
7.022124492000e+00
7.172878392000e+00
7.323632292000e+00
7.474386192000e+00
7.625140092000e+00
7.775893992000e+00
7.926647892000e+00
8.077401792000e+00
8.228155692000e+00
8.378909592000e+00
8.529663492000e+00
8.680417392000e+00
8.831171292000e+00
8.981925192000e+00
0.000000000000e+00
0.000000000000e+00
0.000000000000e+00
0.000000000000e+00
0.000000000000e+00
0.000000000000e+00
0.000000000000e+00
0.000000000000e+00
0.000000000000e+00
0.000000000000e+00
0.000000000000e+00
0.000000000000e+00
0.000000000000e+00
0.000000000000e+00
0.000000000000e+00
0.000000000000e+00
0.000000000000e+00
0.000000000000e+00
0.000000000000e+00
0.000000000000e+00
0.000000000000e+00
0.000000000000e+00
0.000000000000e+00
0.000000000000e+00
0.000000000000e+00
0.000000000000e+00
0.000000000000e+00
0.000000000000e+00
0.000000000000e+00
0.000000000000e+00
0.000000000000e+00
0.000000000000e+00
0.000000000000e+00
0.000000000000e+00
0.000000000000e+00
0.000000000000e+00
0.000000000000e+00
0.000000000000e+00
0.000000000000e+00
0.000000000000e+00
0.000000000000e+00
0.000000000000e+00
0.000000000000e+00
0.000000000000e+00
0.000000000000e+00
0.000000000000e+00
0.000000000000e+00
0.000000000000e+00
0.000000000000e+00
0.000000000000e+00
0.000000000000e+00
0.000000000000e+00
0.000000000000e+00
0.000000000000e+00
0.000000000000e+00
0.000000000000e+00
0.000000000000e+00
0.000000000000e+00
0.000000000000e+00
0.000000000000e+00
0.000000000000e+00
0.000000000000e+00
0.000000000000e+00
0.000000000000e+00
0.000000000000e+00
0.000000000000e+00
0.000000000000e+00
0.000000000000e+00
0.000000000000e+00
0.000000000000e+00
0.000000000000e+00
0.000000000000e+00
0.000000000000e+00
0.000000000000e+00
0.000000000000e+00
0.000000000000e+00
0.000000000000e+00
0.000000000000e+00
0.000000000000e+00
0.000000000000e+00
</dep>
