<Qucs Dataset 24.2.1>
<indep time 465>
0.000000000000e+00
1.000000000000e-11
2.000000000000e-11
4.000000000000e-11
8.000000000000e-11
1.600000000000e-10
3.200000000000e-10
6.400000000000e-10
1.000000000000e-09
1.064000000000e-09
1.192000000000e-09
1.448000000000e-09
1.960000000000e-09
2.984000000000e-09
5.032000000000e-09
9.128000000000e-09
1.732000000000e-08
3.370400000000e-08
6.647200000000e-08
1.320080000000e-07
2.630800000000e-07
5.252240000000e-07
1.049512000000e-06
2.098088000000e-06
4.195240000000e-06
8.389544000000e-06
1.677815200000e-05
3.355536800000e-05
6.710980000000e-05
1.342186640000e-04
2.684363920000e-04
5.368718480000e-04
1.073742760000e-03
2.147484584000e-03
4.294968232000e-03
8.589935528000e-03
1.717987012000e-02
3.435973930400e-02
5.948533930400e-02
8.461093930400e-02
1.097365393040e-01
1.348621393040e-01
1.599877393040e-01
1.851133393040e-01
2.102389393040e-01
2.353645393040e-01
2.604901393040e-01
2.856157393040e-01
3.107413393040e-01
3.358669393040e-01
3.609925393040e-01
3.861181393040e-01
4.112437393040e-01
4.363693393040e-01
4.614949393040e-01
4.866205393040e-01
5.000000000000e-01
5.000000001000e-01
5.000000003000e-01
5.000000007000e-01
5.000000010000e-01
5.000000010800e-01
5.000000012400e-01
5.000000015600e-01
5.000000022000e-01
5.000000034800e-01
5.000000060400e-01
5.000000111600e-01
5.000000214000e-01
5.000000418800e-01
5.000000828400e-01
5.000001647600e-01
5.000003286000e-01
5.000006562800e-01
5.000013116400e-01
5.000026223599e-01
5.000052437999e-01
5.000104866797e-01
5.000209724394e-01
5.000419439588e-01
5.000838869976e-01
5.001677730753e-01
5.003355452305e-01
5.006710895410e-01
5.013421781620e-01
5.026843554041e-01
5.053687098882e-01
5.107374188563e-01
5.214748367927e-01
5.429496726653e-01
5.680752726653e-01
5.932008726653e-01
6.183264726653e-01
6.434520726653e-01
6.685776726653e-01
6.937032726653e-01
7.188288726653e-01
7.439544726653e-01
7.690800726653e-01
7.942056726653e-01
8.193312726653e-01
8.444568726653e-01
8.695824726653e-01
8.947080726653e-01
9.198336726653e-01
9.449592726653e-01
9.700848726653e-01
9.952104726653e-01
1.000000001000e+00
1.000000001100e+00
1.000000001300e+00
1.000000001700e+00
1.000000002000e+00
1.000000002080e+00
1.000000002240e+00
1.000000002560e+00
1.000000003200e+00
1.000000004480e+00
1.000000007040e+00
1.000000012160e+00
1.000000022400e+00
1.000000042880e+00
1.000000083840e+00
1.000000165760e+00
1.000000329600e+00
1.000000657280e+00
1.000001312640e+00
1.000002623360e+00
1.000005244800e+00
1.000010487681e+00
1.000020973442e+00
1.000041944963e+00
1.000083888007e+00
1.000167774094e+00
1.000335546268e+00
1.000671090616e+00
1.001342179311e+00
1.002684356702e+00
1.005368711484e+00
1.010737421048e+00
1.021474840177e+00
1.042949678434e+00
1.068075278434e+00
1.093200878434e+00
1.118326478434e+00
1.143452078434e+00
1.168577678434e+00
1.193703278434e+00
1.218828878434e+00
1.243954478434e+00
1.269080078434e+00
1.294205678434e+00
1.319331278434e+00
1.344456878434e+00
1.369582478434e+00
1.394708078434e+00
1.419833678434e+00
1.444959278434e+00
1.470084878434e+00
1.495210478434e+00
1.500000000000e+00
1.500000000100e+00
1.500000000300e+00
1.500000000700e+00
1.500000001000e+00
1.500000001080e+00
1.500000001240e+00
1.500000001560e+00
1.500000002200e+00
1.500000003480e+00
1.500000006040e+00
1.500000011160e+00
1.500000021400e+00
1.500000041880e+00
1.500000082840e+00
1.500000164760e+00
1.500000328600e+00
1.500000656280e+00
1.500001311640e+00
1.500002622360e+00
1.500005243800e+00
1.500010486681e+00
1.500020972442e+00
1.500041943963e+00
1.500083887007e+00
1.500167773094e+00
1.500335545268e+00
1.500671089616e+00
1.501342178311e+00
1.502684355702e+00
1.505368710484e+00
1.510737420048e+00
1.521474839177e+00
1.542949677434e+00
1.568075277434e+00
1.593200877434e+00
1.618326477434e+00
1.643452077434e+00
1.668577677434e+00
1.693703277434e+00
1.718828877434e+00
1.743954477434e+00
1.769080077434e+00
1.794205677434e+00
1.819331277434e+00
1.844456877434e+00
1.869582477434e+00
1.894708077434e+00
1.919833677434e+00
1.944959277434e+00
1.970084877434e+00
1.995210477434e+00
2.020336077434e+00
2.045461677434e+00
2.070587277434e+00
2.095712877434e+00
2.120838477434e+00
2.145964077434e+00
2.171089677434e+00
2.196215277434e+00
2.221340877434e+00
2.246466477434e+00
2.271592077434e+00
2.296717677434e+00
2.321843277434e+00
2.346968877434e+00
2.372094477434e+00
2.397220077434e+00
2.422345677434e+00
2.447471277434e+00
2.472596877434e+00
2.497722477434e+00
2.500000001000e+00
2.500000001100e+00
2.500000001300e+00
2.500000001700e+00
2.500000002000e+00
2.500000002080e+00
2.500000002240e+00
2.500000002560e+00
2.500000003200e+00
2.500000004480e+00
2.500000007040e+00
2.500000012160e+00
2.500000022400e+00
2.500000042880e+00
2.500000083840e+00
2.500000165760e+00
2.500000329600e+00
2.500000657280e+00
2.500001312640e+00
2.500002623360e+00
2.500005244800e+00
2.500010487681e+00
2.500020973442e+00
2.500041944963e+00
2.500083888007e+00
2.500167774094e+00
2.500335546268e+00
2.500671090616e+00
2.501342179311e+00
2.502684356702e+00
2.505368711484e+00
2.510737421048e+00
2.521474840177e+00
2.542949678434e+00
2.568075278434e+00
2.593200878434e+00
2.618326478434e+00
2.643452078434e+00
2.668577678434e+00
2.693703278434e+00
2.718828878434e+00
2.743954478434e+00
2.769080078434e+00
2.794205678434e+00
2.819331278434e+00
2.844456878434e+00
2.869582478434e+00
2.894708078434e+00
2.919833678434e+00
2.944959278434e+00
2.970084878434e+00
2.995210478434e+00
3.000000000000e+00
3.000000000100e+00
3.000000000300e+00
3.000000000700e+00
3.000000001000e+00
3.000000001080e+00
3.000000001240e+00
3.000000001560e+00
3.000000002000e+00
3.000000002064e+00
3.000000002192e+00
3.000000002448e+00
3.000000002960e+00
3.000000003984e+00
3.000000006032e+00
3.000000010128e+00
3.000000018320e+00
3.000000034704e+00
3.000000067472e+00
3.000000133008e+00
3.000000264080e+00
3.000000526224e+00
3.000001050512e+00
3.000002099088e+00
3.000004196240e+00
3.000008390545e+00
3.000016779153e+00
3.000033556371e+00
3.000067110806e+00
3.000134219675e+00
3.000268437414e+00
3.000536872892e+00
3.001073743849e+00
3.002147485762e+00
3.004294969587e+00
3.008589937239e+00
3.017179872541e+00
3.034359743147e+00
3.059485343147e+00
3.084610943147e+00
3.109736543147e+00
3.134862143147e+00
3.159987743147e+00
3.185113343147e+00
3.210238943147e+00
3.235364543147e+00
3.260490143147e+00
3.285615743147e+00
3.310741343147e+00
3.335866943147e+00
3.360992543147e+00
3.386118143147e+00
3.411243743147e+00
3.436369343147e+00
3.461494943147e+00
3.486620543147e+00
3.511746143147e+00
3.536871743147e+00
3.561997343147e+00
3.587122943147e+00
3.612248543147e+00
3.637374143147e+00
3.662499743147e+00
3.687625343147e+00
3.712750943147e+00
3.737876543147e+00
3.763002143147e+00
3.788127743147e+00
3.813253343147e+00
3.838378943147e+00
3.863504543147e+00
3.888630143147e+00
3.913755743147e+00
3.938881343147e+00
3.964006943147e+00
3.989132543147e+00
4.000000001000e+00
4.000000001100e+00
4.000000001300e+00
4.000000001700e+00
4.000000002000e+00
4.000000002080e+00
4.000000002240e+00
4.000000002560e+00
4.000000003200e+00
4.000000004480e+00
4.000000007040e+00
4.000000012160e+00
4.000000022400e+00
4.000000042880e+00
4.000000083840e+00
4.000000165760e+00
4.000000329600e+00
4.000000657280e+00
4.000001312640e+00
4.000002623360e+00
4.000005244800e+00
4.000010487681e+00
4.000020973442e+00
4.000041944963e+00
4.000083888007e+00
4.000167774094e+00
4.000335546268e+00
4.000671090616e+00
4.001342179311e+00
4.002684356702e+00
4.005368711484e+00
4.010737421048e+00
4.021474840177e+00
4.042949678434e+00
4.068075278434e+00
4.093200878434e+00
4.118326478434e+00
4.143452078434e+00
4.168577678434e+00
4.193703278434e+00
4.218828878434e+00
4.243954478434e+00
4.269080078434e+00
4.294205678434e+00
4.319331278434e+00
4.344456878434e+00
4.369582478434e+00
4.394708078434e+00
4.419833678434e+00
4.444959278434e+00
4.470084878434e+00
4.495210478434e+00
4.500000000000e+00
4.500000000100e+00
4.500000000300e+00
4.500000000700e+00
4.500000001000e+00
4.500000001080e+00
4.500000001240e+00
4.500000001560e+00
4.500000002200e+00
4.500000003480e+00
4.500000006040e+00
4.500000011160e+00
4.500000021400e+00
4.500000041880e+00
4.500000082840e+00
4.500000164760e+00
4.500000328600e+00
4.500000656280e+00
4.500001311640e+00
4.500002622360e+00
4.500005243800e+00
4.500010486681e+00
4.500020972442e+00
4.500041943963e+00
4.500083887007e+00
4.500167773094e+00
4.500335545268e+00
4.500671089616e+00
4.501342178311e+00
4.502684355702e+00
4.505368710484e+00
4.510737420048e+00
4.521474839177e+00
4.542949677434e+00
4.568075277434e+00
4.593200877434e+00
4.618326477434e+00
4.643452077434e+00
4.668577677434e+00
4.693703277434e+00
4.718828877434e+00
4.743954477434e+00
4.769080077434e+00
4.794205677434e+00
4.819331277434e+00
4.844456877434e+00
4.869582477434e+00
4.894708077434e+00
4.919833677434e+00
4.944959277434e+00
4.970084877434e+00
4.995210477434e+00
5.000000000000e+00
</indep>
<dep tran.v(vpulse_monitor) time>
0.000000000000e+00
0.000000000000e+00
0.000000000000e+00
0.000000000000e+00
0.000000000000e+00
0.000000000000e+00
0.000000000000e+00
0.000000000000e+00
0.000000000000e+00
0.000000000000e+00
0.000000000000e+00
0.000000000000e+00
0.000000000000e+00
0.000000000000e+00
0.000000000000e+00
0.000000000000e+00
0.000000000000e+00
0.000000000000e+00
0.000000000000e+00
0.000000000000e+00
0.000000000000e+00
0.000000000000e+00
0.000000000000e+00
0.000000000000e+00
0.000000000000e+00
0.000000000000e+00
0.000000000000e+00
0.000000000000e+00
0.000000000000e+00
0.000000000000e+00
0.000000000000e+00
0.000000000000e+00
0.000000000000e+00
0.000000000000e+00
0.000000000000e+00
0.000000000000e+00
0.000000000000e+00
0.000000000000e+00
0.000000000000e+00
0.000000000000e+00
0.000000000000e+00
0.000000000000e+00
0.000000000000e+00
0.000000000000e+00
0.000000000000e+00
0.000000000000e+00
0.000000000000e+00
0.000000000000e+00
0.000000000000e+00
0.000000000000e+00
0.000000000000e+00
0.000000000000e+00
0.000000000000e+00
0.000000000000e+00
0.000000000000e+00
0.000000000000e+00
0.000000000000e+00
1.000000082740e-01
3.000000248221e-01
7.000000579183e-01
9.999999717181e-01
1.000000000000e+00
1.000000000000e+00
1.000000000000e+00
1.000000000000e+00
1.000000000000e+00
1.000000000000e+00
1.000000000000e+00
1.000000000000e+00
1.000000000000e+00
1.000000000000e+00
1.000000000000e+00
1.000000000000e+00
1.000000000000e+00
1.000000000000e+00
1.000000000000e+00
1.000000000000e+00
1.000000000000e+00
1.000000000000e+00
1.000000000000e+00
1.000000000000e+00
1.000000000000e+00
1.000000000000e+00
1.000000000000e+00
1.000000000000e+00
1.000000000000e+00
1.000000000000e+00
1.000000000000e+00
1.000000000000e+00
1.000000000000e+00
1.000000000000e+00
1.000000000000e+00
1.000000000000e+00
1.000000000000e+00
1.000000000000e+00
1.000000000000e+00
1.000000000000e+00
1.000000000000e+00
1.000000000000e+00
1.000000000000e+00
1.000000000000e+00
1.000000000000e+00
1.000000000000e+00
1.000000000000e+00
1.000000000000e+00
1.000000000000e+00
1.000000000000e+00
1.000000000000e+00
1.000000000000e+00
1.000000000000e+00
1.000000000000e+00
1.000000000000e+00
1.000000000000e+00
1.000000000000e+00
1.000000000000e+00
1.000000000000e+00
1.000000000000e+00
1.000000000000e+00
1.000000000000e+00
1.000000000000e+00
1.000000000000e+00
1.000000000000e+00
1.000000000000e+00
1.000000000000e+00
1.000000000000e+00
1.000000000000e+00
1.000000000000e+00
1.000000000000e+00
1.000000000000e+00
1.000000000000e+00
1.000000000000e+00
1.000000000000e+00
1.000000000000e+00
1.000000000000e+00
1.000000000000e+00
1.000000000000e+00
1.000000000000e+00
1.000000000000e+00
1.000000000000e+00
1.000000000000e+00
1.000000000000e+00
1.000000000000e+00
1.000000000000e+00
1.000000000000e+00
1.000000000000e+00
1.000000000000e+00
1.000000000000e+00
1.000000000000e+00
1.000000000000e+00
1.000000000000e+00
1.000000000000e+00
1.000000000000e+00
1.000000000000e+00
1.000000000000e+00
1.000000000000e+00
1.000000000000e+00
1.000000000000e+00
1.000000000000e+00
1.000000000000e+00
1.000000000000e+00
1.000000000000e+00
1.000000000000e+00
1.000000000000e+00
1.000000000000e+00
1.000000000000e+00
1.000000000000e+00
1.000000000000e+00
1.000000000000e+00
1.000000000000e+00
1.000000000000e+00
1.000000000000e+00
1.000000000000e+00
1.000000000000e+00
1.000000000000e+00
1.000000000000e+00
1.000000000000e+00
1.000000000000e+00
1.000000000000e+00
1.000000000000e+00
1.000000000000e+00
1.000000000000e+00
1.000000000000e+00
1.000000000000e+00
1.000000000000e+00
1.000000000000e+00
1.000000000000e+00
1.000000000000e+00
1.000000000000e+00
1.000000000000e+00
1.000000000000e+00
1.000000000000e+00
1.000000000000e+00
1.000000000000e+00
1.000000000000e+00
1.000000000000e+00
1.000000000000e+00
1.000000000000e+00
1.000000000000e+00
1.000000000000e+00
1.000000000000e+00
1.000000000000e+00
1.000000000000e+00
1.000000000000e+00
1.000000000000e+00
1.000000000000e+00
1.000000000000e+00
1.000000000000e+00
1.000000000000e+00
1.000000000000e+00
1.000000000000e+00
1.000000000000e+00
1.000000000000e+00
1.000000000000e+00
1.000000000000e+00
1.000000000000e+00
1.000000000000e+00
1.000000000000e+00
1.000000000000e+00
1.000000000000e+00
1.000000000000e+00
1.000000000000e+00
1.000000000000e+00
1.000000000000e+00
1.000000000000e+00
1.000000000000e+00
1.000000000000e+00
1.000000000000e+00
1.000000000000e+00
1.000000000000e+00
1.000000000000e+00
1.000000000000e+00
1.000000000000e+00
1.000000000000e+00
1.000000000000e+00
1.000000000000e+00
1.000000000000e+00
1.000000000000e+00
1.000000000000e+00
1.000000000000e+00
1.000000000000e+00
1.000000000000e+00
1.000000000000e+00
1.000000000000e+00
1.000000000000e+00
1.000000000000e+00
1.000000000000e+00
1.000000000000e+00
1.000000000000e+00
1.000000000000e+00
1.000000000000e+00
1.000000000000e+00
1.000000000000e+00
1.000000000000e+00
1.000000000000e+00
1.000000000000e+00
1.000000000000e+00
1.000000000000e+00
1.000000000000e+00
1.000000000000e+00
1.000000000000e+00
1.000000000000e+00
1.000000000000e+00
1.000000000000e+00
1.000000000000e+00
1.000000000000e+00
1.000000000000e+00
1.000000000000e+00
1.000000000000e+00
1.000000000000e+00
1.000000000000e+00
1.000000000000e+00
1.000000000000e+00
1.000000000000e+00
1.000000000000e+00
1.000000000000e+00
1.000000000000e+00
1.000000000000e+00
1.000000000000e+00
1.000000000000e+00
1.000000000000e+00
1.000000000000e+00
1.000000000000e+00
1.000000000000e+00
1.000000000000e+00
1.000000000000e+00
1.000000000000e+00
1.000000000000e+00
1.000000000000e+00
1.000000000000e+00
9.199999933808e-01
7.599999801423e-01
4.399999536654e-01
0.000000000000e+00
0.000000000000e+00
0.000000000000e+00
0.000000000000e+00
0.000000000000e+00
0.000000000000e+00
0.000000000000e+00
0.000000000000e+00
0.000000000000e+00
0.000000000000e+00
0.000000000000e+00
0.000000000000e+00
0.000000000000e+00
0.000000000000e+00
0.000000000000e+00
0.000000000000e+00
0.000000000000e+00
0.000000000000e+00
0.000000000000e+00
0.000000000000e+00
0.000000000000e+00
0.000000000000e+00
0.000000000000e+00
0.000000000000e+00
0.000000000000e+00
0.000000000000e+00
0.000000000000e+00
0.000000000000e+00
0.000000000000e+00
0.000000000000e+00
0.000000000000e+00
0.000000000000e+00
0.000000000000e+00
0.000000000000e+00
0.000000000000e+00
0.000000000000e+00
0.000000000000e+00
0.000000000000e+00
0.000000000000e+00
0.000000000000e+00
0.000000000000e+00
0.000000000000e+00
0.000000000000e+00
0.000000000000e+00
0.000000000000e+00
0.000000000000e+00
0.000000000000e+00
0.000000000000e+00
0.000000000000e+00
0.000000000000e+00
0.000000000000e+00
0.000000000000e+00
0.000000000000e+00
0.000000000000e+00
0.000000000000e+00
0.000000000000e+00
0.000000000000e+00
0.000000000000e+00
0.000000000000e+00
0.000000000000e+00
0.000000000000e+00
0.000000000000e+00
0.000000000000e+00
0.000000000000e+00
0.000000000000e+00
0.000000000000e+00
0.000000000000e+00
0.000000000000e+00
0.000000000000e+00
0.000000000000e+00
0.000000000000e+00
0.000000000000e+00
0.000000000000e+00
0.000000000000e+00
0.000000000000e+00
0.000000000000e+00
0.000000000000e+00
0.000000000000e+00
0.000000000000e+00
0.000000000000e+00
0.000000000000e+00
0.000000000000e+00
0.000000000000e+00
0.000000000000e+00
0.000000000000e+00
0.000000000000e+00
0.000000000000e+00
0.000000000000e+00
0.000000000000e+00
0.000000000000e+00
0.000000000000e+00
0.000000000000e+00
0.000000000000e+00
0.000000000000e+00
0.000000000000e+00
0.000000000000e+00
0.000000000000e+00
0.000000000000e+00
0.000000000000e+00
0.000000000000e+00
0.000000000000e+00
0.000000000000e+00
0.000000000000e+00
0.000000000000e+00
0.000000000000e+00
0.000000000000e+00
0.000000000000e+00
0.000000000000e+00
0.000000000000e+00
0.000000000000e+00
0.000000000000e+00
0.000000000000e+00
0.000000000000e+00
0.000000000000e+00
0.000000000000e+00
0.000000000000e+00
0.000000000000e+00
0.000000000000e+00
0.000000000000e+00
0.000000000000e+00
0.000000000000e+00
0.000000000000e+00
0.000000000000e+00
0.000000000000e+00
0.000000000000e+00
0.000000000000e+00
0.000000000000e+00
0.000000000000e+00
0.000000000000e+00
0.000000000000e+00
0.000000000000e+00
0.000000000000e+00
0.000000000000e+00
0.000000000000e+00
0.000000000000e+00
0.000000000000e+00
0.000000000000e+00
0.000000000000e+00
0.000000000000e+00
0.000000000000e+00
0.000000000000e+00
0.000000000000e+00
0.000000000000e+00
0.000000000000e+00
0.000000000000e+00
0.000000000000e+00
0.000000000000e+00
0.000000000000e+00
0.000000000000e+00
0.000000000000e+00
0.000000000000e+00
0.000000000000e+00
0.000000000000e+00
0.000000000000e+00
0.000000000000e+00
0.000000000000e+00
0.000000000000e+00
0.000000000000e+00
0.000000000000e+00
0.000000000000e+00
0.000000000000e+00
0.000000000000e+00
0.000000000000e+00
0.000000000000e+00
0.000000000000e+00
0.000000000000e+00
0.000000000000e+00
0.000000000000e+00
0.000000000000e+00
0.000000000000e+00
0.000000000000e+00
0.000000000000e+00
0.000000000000e+00
</dep>
<dep tran.v(vrect_monitor) time>
0.000000000000e+00
1.000000000000e-02
2.000000000000e-02
4.000000000000e-02
8.000000000000e-02
1.600000000000e-01
3.200000000000e-01
6.400000000000e-01
1.000000000000e+00
1.000000000000e+00
1.000000000000e+00
1.000000000000e+00
1.000000000000e+00
1.000000000000e+00
1.000000000000e+00
1.000000000000e+00
1.000000000000e+00
1.000000000000e+00
1.000000000000e+00
1.000000000000e+00
1.000000000000e+00
1.000000000000e+00
1.000000000000e+00
1.000000000000e+00
1.000000000000e+00
1.000000000000e+00
1.000000000000e+00
1.000000000000e+00
1.000000000000e+00
1.000000000000e+00
1.000000000000e+00
1.000000000000e+00
1.000000000000e+00
1.000000000000e+00
1.000000000000e+00
1.000000000000e+00
1.000000000000e+00
1.000000000000e+00
1.000000000000e+00
1.000000000000e+00
1.000000000000e+00
1.000000000000e+00
1.000000000000e+00
1.000000000000e+00
1.000000000000e+00
1.000000000000e+00
1.000000000000e+00
1.000000000000e+00
1.000000000000e+00
1.000000000000e+00
1.000000000000e+00
1.000000000000e+00
1.000000000000e+00
1.000000000000e+00
1.000000000000e+00
1.000000000000e+00
1.000000000000e+00
1.000000000000e+00
1.000000000000e+00
1.000000000000e+00
1.000000000000e+00
1.000000000000e+00
1.000000000000e+00
1.000000000000e+00
1.000000000000e+00
1.000000000000e+00
1.000000000000e+00
1.000000000000e+00
1.000000000000e+00
1.000000000000e+00
1.000000000000e+00
1.000000000000e+00
1.000000000000e+00
1.000000000000e+00
1.000000000000e+00
1.000000000000e+00
1.000000000000e+00
1.000000000000e+00
1.000000000000e+00
1.000000000000e+00
1.000000000000e+00
1.000000000000e+00
1.000000000000e+00
1.000000000000e+00
1.000000000000e+00
1.000000000000e+00
1.000000000000e+00
1.000000000000e+00
1.000000000000e+00
1.000000000000e+00
1.000000000000e+00
1.000000000000e+00
1.000000000000e+00
1.000000000000e+00
1.000000000000e+00
1.000000000000e+00
1.000000000000e+00
1.000000000000e+00
1.000000000000e+00
1.000000000000e+00
1.000000000000e+00
1.000000000000e+00
1.000000000000e+00
1.000000000000e+00
1.000000000000e+00
1.000000000000e+00
1.000000000000e+00
1.000000000000e+00
1.000000000000e+00
8.999999917260e-01
6.999999751779e-01
2.999999420817e-01
0.000000000000e+00
0.000000000000e+00
0.000000000000e+00
0.000000000000e+00
