<Qucs Dataset 1.0.0>
<indep Versus.0001 101>
  +8.63337624653418795307e-09
  +1.13650072114938517969e-08
  +1.49597509467927978977e-08
  +1.96895045614421310172e-08
  +2.59114042927844119144e-08
  +3.40943029605975109951e-08
  +4.48533795297033393551e-08
  +5.89953111921988925364e-08
  +7.75771350782310833340e-08
  +1.01982856424743454934e-07
  +1.34022882600525664078e-07
  +1.76062971021840592706e-07
  +2.31190952637998642645e-07
  +3.03431671798925801569e-07
  +3.98023570923294334150e-07
  +5.21772916598413460543e-07
  +6.83506342394298524670e-07
  +8.94646142528036807330e-07
  +1.16993845856935667179e-06
  +1.52837032653134819975e-06
  +1.99431793769086110308e-06
  +2.59897571699663423268e-06
  +3.38212318147162487909e-06
  +4.39429355188431553945e-06
  +5.69941571733912590492e-06
  +7.37800687681702710191e-06
  +9.53099926190840266728e-06
  +1.22842882567738052808e-05
  +1.57940930419851863122e-05
  +2.02532239026324346106e-05
  +2.58983538785236847501e-05
  +3.30183979466226095118e-05
  +4.19641112280501061551e-05
  +5.31590321610673379577e-05
  +6.71119158559331540660e-05
  +8.44308314437895257674e-05
  +1.05839132377545463255e-04
  +1.32193552606771905699e-04
  +1.64504731444284287055e-04
  +2.03960526419604351329e-04
  +2.51952532504934355925e-04
  +3.10106289795043744625e-04
  +3.80315725229509956924e-04
  +4.64782438564712442174e-04
  +5.66060508222247338143e-04
  +6.87107555668952534912e-04
  +8.31342868573666004053e-04
  +1.00271343981278853071e-03
  +1.20576882930540653892e-03
  +1.44574579233292151159e-03
  +1.72866363710389293711e-03
  +2.06143126512515215479e-03
  +2.45196680115727710589e-03
  +2.90933062115050506541e-03
  +3.44387241910423195362e-03
  +4.06739270369085251927e-03
  +4.79331875670634382364e-03
  +5.63689460686848681920e-03
  +6.61538395101308237395e-03
  +7.74828418673671314582e-03
  +9.05754880283084554127e-03
  +1.05678143327781748351e-02
  +1.23066269497782414949e-02
  +1.43046626557334997237e-02
  +1.65959339979996553516e-02
  +1.92179754994239553045e-02
  +2.22119996881261216881e-02
  +2.56230159732881573875e-02
  +2.94999058146974586780e-02
  +3.38954498140520699145e-02
  +3.88663055408974209004e-02
  +4.44729389772392860736e-02
  +5.07795171206180950829e-02
  +5.78537740540040618109e-02
  +6.57668670773041003086e-02
  +7.45932426699323358754e-02
  +8.44105335845544424433e-02
  +9.52995079386152049716e-02
  +1.07344088754251887341e-01
  +1.20631458304107458401e-01
  +1.35252256421584671209e-01
  +1.51300876352472135622e-01
  +1.68875856486684267077e-01
  +1.88080362008950924269e-01
  +2.09022747522052965152e-01
  +2.31817190151005686483e-01
  +2.56584382437359481699e-01
  +2.83452275227944971991e-01
  +3.12556862420995340557e-01
  +3.44043001518524294013e-01
  +3.78065266149911760607e-01
  +4.14788828857272362516e-01
  +4.54390374318766054884e-01
  +4.97059044759533941171e-01
  +5.42997420536780683875e-01
  +5.92422539807184289629e-01
  +6.45566961825176366396e-01
  +7.02679878833209370370e-01
  +7.64028281733323155755e-01
  +8.29898184820952344865e-01
  +9.00595914849168122096e-01
</indep>
<indep Ib 101>
  +1.00000000000000002092e-08
  +1.14815362149688283495e-08
  +1.31825673855640728005e-08
  +1.51356124843620855698e-08
  +1.73780082874937598700e-08
  +1.99526231496888029490e-08
  +2.29086765276777359093e-08
  +2.63026799189538275126e-08
  +3.01995172040201679772e-08
  +3.46736850452531774215e-08
  +3.98107170553497425402e-08
  +4.57088189614875173122e-08
  +5.24807460249772847168e-08
  +6.02559586074358081767e-08
  +6.91830970918936773331e-08
  +7.94328234724282063369e-08
  +9.12010839355910431162e-08
  +1.04712854805089999050e-07
  +1.20226443461741376108e-07
  +1.38038426460288574470e-07
  +1.58489319246111513904e-07
  +1.81970085860998480591e-07
  +2.08929613085404113069e-07
  +2.39883291901949297579e-07
  +2.75422870333816897753e-07
  +3.16227766016838183811e-07
  +3.63078054770101683834e-07
  +4.16869383470335834458e-07
  +4.78630092322638827988e-07
  +5.49540873857625226411e-07
  +6.30957344480194128509e-07
  +7.24435960074990688681e-07
  +8.31763771102671933104e-07
  +9.54992586021437517998e-07
  +1.09647819614318615791e-06
  +1.25892541179416886714e-06
  +1.44543977074592984156e-06
  +1.65958690743756218902e-06
  +1.90546071796324980920e-06
  +2.18776162394955597074e-06
  +2.51188643150958523754e-06
  +2.88403150312661011453e-06
  +3.31131121482591660724e-06
  +3.80189396320561956587e-06
  +4.36515832240166593616e-06
  +5.01187233627273174668e-06
  +5.75439937337158114431e-06
  +6.60693448007597031987e-06
  +7.58577575029185175099e-06
  +8.70963589956082591620e-06
  +1.00000000000000160646e-05
  +1.14815362149688493797e-05
  +1.31825673855640997600e-05
  +1.51356124843621069574e-05
  +1.73780082874937875839e-05
  +1.99526231496888404302e-05
  +2.29086765276777659260e-05
  +2.63026799189538717171e-05
  +3.01995172040202326694e-05
  +3.46736850452532217848e-05
  +3.98107170553498436547e-05
  +4.57088189614876112799e-05
  +5.24807460249773546500e-05
  +6.02559586074359550311e-05
  +6.91830970918938151877e-05
  +7.94328234724283021575e-05
  +9.12010839355912483100e-05
  +1.04712854805090205832e-04
  +1.20226443461741514386e-04
  +1.38038426460288898671e-04
  +1.58489319246111744297e-04
  +1.81970085860998697855e-04
  +2.08929613085404605830e-04
  +2.39883291901949667309e-04
  +2.75422870333817215813e-04
  +3.16227766016838969434e-04
  +3.63078054770102321650e-04
  +4.16869383470336264327e-04
  +4.78630092322639892708e-04
  +5.49540873857625963329e-04
  +6.30957344480195694673e-04
  +7.24435960074992541143e-04
  +8.31763771102673370519e-04
  +9.54992586021439810069e-04
  +1.09647819614318861939e-03
  +1.25892541179417074247e-03
  +1.44543977074593340756e-03
  +1.65958690743756628189e-03
  +1.90546071796325274840e-03
  +2.18776162394956116136e-03
  +2.51188643150958897804e-03
  +2.88403150312661416335e-03
  +3.31131121482592478619e-03
  +3.80189396320562526810e-03
  +4.36515832240167225842e-03
  +5.01187233627274370679e-03
  +5.75439937337158917419e-03
  +6.60693448007598077565e-03
  +7.58577575029187062966e-03
  +8.70963589956083757138e-03
  +1.00000000000000296985e-02
</indep>
<dep Beta_vs_Ic Versus.0001>
  +8.63337624653418789222e-01
  +9.89850748079942999169e-01
  +1.13481315962586148949e+00
  +1.30087266582604876852e+00
  +1.49104568625575972796e+00
  +1.70876293832719805543e+00
  +1.95792102941924728299e+00
  +2.24293917479057380859e+00
  +2.56882037398611107193e+00
  +2.94121770707797614008e+00
  +3.36650260316061666899e+00
  +3.85183811400124875846e+00
  +4.40525278600207759183e+00
  +5.03571229819387866655e+00
  +5.75319099106841758129e+00
  +6.56873183891700840320e+00
  +7.49449801360926048943e+00
  +8.54380433226951652159e+00
  +9.73112424257693398033e+00
  +1.10720642485086262496e+01
  +1.25832955001463986378e+01
  +1.42824338665307557505e+01
  +1.61878593059429789491e+01
  +1.83184644376168286328e+01
  +2.06933277197762954813e+01
  +2.33313063231271407005e+01
  +2.62505517386429758631e+01
  +2.94679550570735244719e+01
  +3.29985374829683237863e+01
  +3.68548089252404338367e+01
  +4.10461247580210084607e+01
  +4.55780769679140149719e+01
  +5.04519584598138308706e+01
  +5.56643401626094203039e+01
  +6.12067947105527210283e+01
  +6.70657932970486001523e+01
  +7.32227897139750041333e+01
  +7.96544923404352402940e+01
  +8.63333103083456165905e+01
  +9.32279477740336943725e+01
  +1.00304109829327259718e+02
  +1.07525278229053370183e+02
  +1.14853512870279715230e+02
  +1.22250237135184249837e+02
  +1.29676970779563049518e+02
  +1.37095981215664011188e+02
  +1.44470832598219686815e+02
  +1.51766820578680665221e+02
  +1.58951288437311944790e+02
  +1.65993826723092041675e+02
  +1.72866363710389009611e+02
  +1.79543157512110411744e+02
  +1.86000703007394804445e+02
  +1.92217567948200496630e+02
  +1.98174172904649850580e+02
  +2.03852529723856548571e+02
  +2.09235952627606394572e+02
  +2.14308755770795272610e+02
  +2.19055950673689125097e+02
  +2.23462956897263580913e+02
  +2.27515339405665741879e+02
  +2.31198586462760829363e+02
  +2.34497942234302513498e+02
  +2.37398308587662512537e+02
  +2.39884230333831084181e+02
  +2.41939977194624731283e+02
  +2.43549733507694440959e+02
  +2.44697902859989596891e+02
  +2.45369529076063258799e+02
  +2.45550827282163822929e+02
  +2.45229809338403953234e+02
  +2.44396977485688410070e+02
  +2.43046049675403565971e+02
  +2.41174671213246966772e+02
  +2.38785061667513446082e+02
  +2.35884544894644960777e+02
  +2.32485914462669512659e+02
  +2.28607596809508947899e+02
  +2.24273589304310348780e+02
  +2.19513168251358194993e+02
  +2.14360380467573634178e+02
  +2.08853348937578545019e+02
  +2.03033436119494240302e+02
  +1.96944316387319560135e+02
  +1.90631011412065305421e+02
  +1.84138939431390923573e+02
  +1.77513022424273401612e+02
  +1.70796885633184871267e+02
  +1.64032173150799678751e+02
  +1.57257992713769340298e+02
  +1.50510493391495714377e+02
  +1.43822572120864379031e+02
  +1.37223699265806800440e+02
  +1.30739849551309163189e+02
  +1.24393522624404653243e+02
  +1.18203836821542083158e+02
  +1.12186680127300405729e+02
  +1.06354903465779258909e+02
  +1.00718543084262194043e+02
  +9.52850606375862412278e+01
  +9.00595914849165382066e+01
</dep>
<dep Beta Ib>
  +8.63337624653418789222e-01
  +9.89850748079942999169e-01
  +1.13481315962586148949e+00
  +1.30087266582604876852e+00
  +1.49104568625575972796e+00
  +1.70876293832719805543e+00
  +1.95792102941924728299e+00
  +2.24293917479057380859e+00
  +2.56882037398611107193e+00
  +2.94121770707797614008e+00
  +3.36650260316061666899e+00
  +3.85183811400124875846e+00
  +4.40525278600207759183e+00
  +5.03571229819387866655e+00
  +5.75319099106841758129e+00
  +6.56873183891700840320e+00
  +7.49449801360926048943e+00
  +8.54380433226951652159e+00
  +9.73112424257693398033e+00
  +1.10720642485086262496e+01
  +1.25832955001463986378e+01
  +1.42824338665307557505e+01
  +1.61878593059429789491e+01
  +1.83184644376168286328e+01
  +2.06933277197762954813e+01
  +2.33313063231271407005e+01
  +2.62505517386429758631e+01
  +2.94679550570735244719e+01
  +3.29985374829683237863e+01
  +3.68548089252404338367e+01
  +4.10461247580210084607e+01
  +4.55780769679140149719e+01
  +5.04519584598138308706e+01
  +5.56643401626094203039e+01
  +6.12067947105527210283e+01
  +6.70657932970486001523e+01
  +7.32227897139750041333e+01
  +7.96544923404352402940e+01
  +8.63333103083456165905e+01
  +9.32279477740336943725e+01
  +1.00304109829327259718e+02
  +1.07525278229053370183e+02
  +1.14853512870279715230e+02
  +1.22250237135184249837e+02
  +1.29676970779563049518e+02
  +1.37095981215664011188e+02
  +1.44470832598219686815e+02
  +1.51766820578680665221e+02
  +1.58951288437311944790e+02
  +1.65993826723092041675e+02
  +1.72866363710389009611e+02
  +1.79543157512110411744e+02
  +1.86000703007394804445e+02
  +1.92217567948200496630e+02
  +1.98174172904649850580e+02
  +2.03852529723856548571e+02
  +2.09235952627606394572e+02
  +2.14308755770795272610e+02
  +2.19055950673689125097e+02
  +2.23462956897263580913e+02
  +2.27515339405665741879e+02
  +2.31198586462760829363e+02
  +2.34497942234302513498e+02
  +2.37398308587662512537e+02
  +2.39884230333831084181e+02
  +2.41939977194624731283e+02
  +2.43549733507694440959e+02
  +2.44697902859989596891e+02
  +2.45369529076063258799e+02
  +2.45550827282163822929e+02
  +2.45229809338403953234e+02
  +2.44396977485688410070e+02
  +2.43046049675403565971e+02
  +2.41174671213246966772e+02
  +2.38785061667513446082e+02
  +2.35884544894644960777e+02
  +2.32485914462669512659e+02
  +2.28607596809508947899e+02
  +2.24273589304310348780e+02
  +2.19513168251358194993e+02
  +2.14360380467573634178e+02
  +2.08853348937578545019e+02
  +2.03033436119494240302e+02
  +1.96944316387319560135e+02
  +1.90631011412065305421e+02
  +1.84138939431390923573e+02
  +1.77513022424273401612e+02
  +1.70796885633184871267e+02
  +1.64032173150799678751e+02
  +1.57257992713769340298e+02
  +1.50510493391495714377e+02
  +1.43822572120864379031e+02
  +1.37223699265806800440e+02
  +1.30739849551309163189e+02
  +1.24393522624404653243e+02
  +1.18203836821542083158e+02
  +1.12186680127300405729e+02
  +1.06354903465779258909e+02
  +1.00718543084262194043e+02
  +9.52850606375862412278e+01
  +9.00595914849165382066e+01
</dep>
<dep Ic Ib>
  +8.63337624653418795307e-09
  +1.13650072114938517969e-08
  +1.49597509467927978977e-08
  +1.96895045614421310172e-08
  +2.59114042927844119144e-08
  +3.40943029605975109951e-08
  +4.48533795297033393551e-08
  +5.89953111921988925364e-08
  +7.75771350782310833340e-08
  +1.01982856424743454934e-07
  +1.34022882600525664078e-07
  +1.76062971021840592706e-07
  +2.31190952637998642645e-07
  +3.03431671798925801569e-07
  +3.98023570923294334150e-07
  +5.21772916598413460543e-07
  +6.83506342394298524670e-07
  +8.94646142528036807330e-07
  +1.16993845856935667179e-06
  +1.52837032653134819975e-06
  +1.99431793769086110308e-06
  +2.59897571699663423268e-06
  +3.38212318147162487909e-06
  +4.39429355188431553945e-06
  +5.69941571733912590492e-06
  +7.37800687681702710191e-06
  +9.53099926190840266728e-06
  +1.22842882567738052808e-05
  +1.57940930419851863122e-05
  +2.02532239026324346106e-05
  +2.58983538785236847501e-05
  +3.30183979466226095118e-05
  +4.19641112280501061551e-05
  +5.31590321610673379577e-05
  +6.71119158559331540660e-05
  +8.44308314437895257674e-05
  +1.05839132377545463255e-04
  +1.32193552606771905699e-04
  +1.64504731444284287055e-04
  +2.03960526419604351329e-04
  +2.51952532504934355925e-04
  +3.10106289795043744625e-04
  +3.80315725229509956924e-04
  +4.64782438564712442174e-04
  +5.66060508222247338143e-04
  +6.87107555668952534912e-04
  +8.31342868573666004053e-04
  +1.00271343981278853071e-03
  +1.20576882930540653892e-03
  +1.44574579233292151159e-03
  +1.72866363710389293711e-03
  +2.06143126512515215479e-03
  +2.45196680115727710589e-03
  +2.90933062115050506541e-03
  +3.44387241910423195362e-03
  +4.06739270369085251927e-03
  +4.79331875670634382364e-03
  +5.63689460686848681920e-03
  +6.61538395101308237395e-03
  +7.74828418673671314582e-03
  +9.05754880283084554127e-03
  +1.05678143327781748351e-02
  +1.23066269497782414949e-02
  +1.43046626557334997237e-02
  +1.65959339979996553516e-02
  +1.92179754994239553045e-02
  +2.22119996881261216881e-02
  +2.56230159732881573875e-02
  +2.94999058146974586780e-02
  +3.38954498140520699145e-02
  +3.88663055408974209004e-02
  +4.44729389772392860736e-02
  +5.07795171206180950829e-02
  +5.78537740540040618109e-02
  +6.57668670773041003086e-02
  +7.45932426699323358754e-02
  +8.44105335845544424433e-02
  +9.52995079386152049716e-02
  +1.07344088754251887341e-01
  +1.20631458304107458401e-01
  +1.35252256421584671209e-01
  +1.51300876352472135622e-01
  +1.68875856486684267077e-01
  +1.88080362008950924269e-01
  +2.09022747522052965152e-01
  +2.31817190151005686483e-01
  +2.56584382437359481699e-01
  +2.83452275227944971991e-01
  +3.12556862420995340557e-01
  +3.44043001518524294013e-01
  +3.78065266149911760607e-01
  +4.14788828857272362516e-01
  +4.54390374318766054884e-01
  +4.97059044759533941171e-01
  +5.42997420536780683875e-01
  +5.92422539807184289629e-01
  +6.45566961825176366396e-01
  +7.02679878833209370370e-01
  +7.64028281733323155755e-01
  +8.29898184820952344865e-01
  +9.00595914849168122096e-01
</dep>
<dep V1.I Ib>
  -8.63337624653418795307e-09
  -1.13650072114938517969e-08
  -1.49597509467927978977e-08
  -1.96895045614421310172e-08
  -2.59114042927844119144e-08
  -3.40943029605975109951e-08
  -4.48533795297033393551e-08
  -5.89953111921988925364e-08
  -7.75771350782310833340e-08
  -1.01982856424743454934e-07
  -1.34022882600525664078e-07
  -1.76062971021840592706e-07
  -2.31190952637998642645e-07
  -3.03431671798925801569e-07
  -3.98023570923294334150e-07
  -5.21772916598413460543e-07
  -6.83506342394298524670e-07
  -8.94646142528036807330e-07
  -1.16993845856935667179e-06
  -1.52837032653134819975e-06
  -1.99431793769086110308e-06
  -2.59897571699663423268e-06
  -3.38212318147162487909e-06
  -4.39429355188431553945e-06
  -5.69941571733912590492e-06
  -7.37800687681702710191e-06
  -9.53099926190840266728e-06
  -1.22842882567738052808e-05
  -1.57940930419851863122e-05
  -2.02532239026324346106e-05
  -2.58983538785236847501e-05
  -3.30183979466226095118e-05
  -4.19641112280501061551e-05
  -5.31590321610673379577e-05
  -6.71119158559331540660e-05
  -8.44308314437895257674e-05
  -1.05839132377545463255e-04
  -1.32193552606771905699e-04
  -1.64504731444284287055e-04
  -2.03960526419604351329e-04
  -2.51952532504934355925e-04
  -3.10106289795043744625e-04
  -3.80315725229509956924e-04
  -4.64782438564712442174e-04
  -5.66060508222247338143e-04
  -6.87107555668952534912e-04
  -8.31342868573666004053e-04
  -1.00271343981278853071e-03
  -1.20576882930540653892e-03
  -1.44574579233292151159e-03
  -1.72866363710389293711e-03
  -2.06143126512515215479e-03
  -2.45196680115727710589e-03
  -2.90933062115050506541e-03
  -3.44387241910423195362e-03
  -4.06739270369085251927e-03
  -4.79331875670634382364e-03
  -5.63689460686848681920e-03
  -6.61538395101308237395e-03
  -7.74828418673671314582e-03
  -9.05754880283084554127e-03
  -1.05678143327781748351e-02
  -1.23066269497782414949e-02
  -1.43046626557334997237e-02
  -1.65959339979996553516e-02
  -1.92179754994239553045e-02
  -2.22119996881261216881e-02
  -2.56230159732881573875e-02
  -2.94999058146974586780e-02
  -3.38954498140520699145e-02
  -3.88663055408974209004e-02
  -4.44729389772392860736e-02
  -5.07795171206180950829e-02
  -5.78537740540040618109e-02
  -6.57668670773041003086e-02
  -7.45932426699323358754e-02
  -8.44105335845544424433e-02
  -9.52995079386152049716e-02
  -1.07344088754251887341e-01
  -1.20631458304107458401e-01
  -1.35252256421584671209e-01
  -1.51300876352472135622e-01
  -1.68875856486684267077e-01
  -1.88080362008950924269e-01
  -2.09022747522052965152e-01
  -2.31817190151005686483e-01
  -2.56584382437359481699e-01
  -2.83452275227944971991e-01
  -3.12556862420995340557e-01
  -3.44043001518524294013e-01
  -3.78065266149911760607e-01
  -4.14788828857272362516e-01
  -4.54390374318766054884e-01
  -4.97059044759533941171e-01
  -5.42997420536780683875e-01
  -5.92422539807184289629e-01
  -6.45566961825176366396e-01
  -7.02679878833209370370e-01
  -7.64028281733323155755e-01
  -8.29898184820952344865e-01
  -9.00595914849168122096e-01
</dep>
<dep _net1.V Ib>
  +3.54062497683053423181e-01
  +3.61178076490357324868e-01
  +3.68291570487162100989e-01
  +3.75402425532028793942e-01
  +3.82510041758053365157e-01
  +3.89613762143475372834e-01
  +3.96712862640971497541e-01
  +4.03806540017661363962e-01
  +4.10893899492915215532e-01
  +4.17973941361770184866e-01
  +4.25045546485863123820e-01
  +4.32107461265615722112e-01
  +4.39158281216814772030e-01
  +4.46196434572338374025e-01
  +4.53220164741602871139e-01
  +4.60227513243217589700e-01
  +4.67216302700757535327e-01
  +4.74184121192350371832e-01
  +4.81128308179329833294e-01
  +4.88045943532653625496e-01
  +4.94933840414116588136e-01
  +5.01788543676299103602e-01
  +5.08606334888779598735e-01
  +5.15383245685322455287e-01
  +5.22115080746851090154e-01
  +5.28797451541171970035e-01
  +5.35425821636874244014e-01
  +5.41995563854657969038e-01
  +5.48502028745809333543e-01
  +5.54940623002384225693e-01
  +5.61306895640314662543e-01
  +5.67596628843009209930e-01
  +5.73805929592039021259e-01
  +5.79931318035784681975e-01
  +5.85969808103611655703e-01
  +5.91918976651663375499e-01
  +5.97777017736731308695e-01
  +6.03542780009521218076e-01
  +6.09215786196335429281e-01
  +6.14796235122596512745e-01
  +6.20284987724964098632e-01
  +6.25683539606916694353e-01
  +6.30993983270057734458e-01
  +6.36218963476422372239e-01
  +6.41361629292445334372e-01
  +6.46425586082970959900e-01
  +6.51414850377350918009e-01
  +6.56333810004335660437e-01
  +6.61187191395688489415e-01
  +6.65980035424502125885e-01
  +6.70717682704483841860e-01
  +6.75405768882140211673e-01
  +6.80050230139509048755e-01
  +6.84657318883200027848e-01
