<Qucs Dataset 24.2.1>
<indep time 181>
0.000000000000e+00
1.000000000000e-06
2.000000000000e-06
4.000000000000e-06
6.277478410082e-06
8.476416872791e-06
1.072510514228e-05
1.305601344913e-05
1.542683558928e-05
1.796436213745e-05
2.153044421389e-05
2.538042794533e-05
3.144334944801e-05
4.087546811435e-05
5.115814697929e-05
6.261049950337e-05
7.605539491203e-05
9.437828421667e-05
1.160715803512e-04
1.459352933943e-04
1.819799878584e-04
2.272645848041e-04
2.730328863464e-04
3.023642306766e-04
3.227280944091e-04
3.424160966959e-04
3.579842188226e-04
3.723513686386e-04
3.951024028801e-04
4.288073049349e-04
4.693300267586e-04
4.936676980296e-04
5.091073003976e-04
5.230152817096e-04
5.377429571120e-04
5.566580762289e-04
5.751273522247e-04
5.988859727954e-04
6.294821220826e-04
6.723130442270e-04
7.428748239588e-04
8.076761949897e-04
8.883684504006e-04
9.481981260502e-04
1.004216162120e-03
1.042236351379e-03
1.070850410708e-03
1.101628853843e-03
1.136751814748e-03
1.206997736558e-03
1.306997736558e-03
1.406997736558e-03
1.506997736558e-03
1.606997736558e-03
1.706997736558e-03
1.761145712725e-03
1.780561724541e-03
1.799581755566e-03
1.817876192181e-03
1.850842540071e-03
1.868641362579e-03
1.887860038873e-03
1.907043161899e-03
1.933864775198e-03
1.987508001796e-03
2.030063948280e-03
2.079685651334e-03
2.107991501471e-03
2.135041969931e-03
2.163709173184e-03
2.203406320214e-03
2.277801617800e-03
2.377801617800e-03
2.477801617800e-03
2.526056899283e-03
2.583429230326e-03
2.638151084353e-03
2.682277778090e-03
2.713193723068e-03
2.741320572166e-03
2.769459343527e-03
2.822513688150e-03
2.922513688150e-03
3.022513688150e-03
3.122513688150e-03
3.214291287959e-03
3.301809382138e-03
3.401809382138e-03
3.501809382138e-03
3.601809382138e-03
3.700986512030e-03
3.800986512030e-03
3.900986512030e-03
4.000986512030e-03
4.100986512030e-03
4.200986512030e-03
4.300986512030e-03
4.400986512030e-03
4.500986512030e-03
4.600986512030e-03
4.651041159323e-03
4.675138732314e-03
4.699932130645e-03
4.725249807469e-03
4.740574427555e-03
4.754856668701e-03
4.759898808006e-03
4.763721050123e-03
4.765866761749e-03
4.768005494195e-03
4.770275054607e-03
4.772494958028e-03
4.775607721911e-03
4.780326856185e-03
4.788471755213e-03
4.804761553268e-03
4.837341149379e-03
4.902500341600e-03
5.002500341600e-03
5.102500341600e-03
5.202500341600e-03
5.302500341600e-03
5.402500341600e-03
5.502500341600e-03
5.602500341600e-03
5.649236576227e-03
5.684185605136e-03
5.718350810788e-03
5.737434403413e-03
5.747401222943e-03
5.759684144182e-03
5.770903621901e-03
5.782531376837e-03
5.796976120377e-03
5.810604207605e-03
5.837860382062e-03
5.892372730976e-03
5.992372730976e-03
6.092372730976e-03
6.192372730976e-03
6.292372730976e-03
6.392372730976e-03
6.492372730976e-03
6.592372730976e-03
6.692372730976e-03
6.750881870032e-03
6.807809908110e-03
6.844874871039e-03
6.880265217740e-03
6.924053348966e-03
7.011629611420e-03
7.111629611420e-03
7.211629611420e-03
7.311629611420e-03
7.411629611420e-03
7.511629611420e-03
7.611629611420e-03
7.711629611420e-03
7.811629611420e-03
7.911629611420e-03
8.011629611420e-03
8.111629611420e-03
8.211629611420e-03
8.311629611420e-03
8.411629611420e-03
8.511629611420e-03
8.611629611420e-03
8.711629611420e-03
8.811629611420e-03
8.911629611420e-03
9.011629611420e-03
9.111629611420e-03
9.211629611420e-03
9.311629611420e-03
9.411629611420e-03
9.511629611420e-03
9.611629611420e-03
9.711629611420e-03
9.811629611420e-03
9.911629611420e-03
1.000000000000e-02
</indep>
<dep tran.v(input) time>
0.000000000000e+00
6.282143131552e-02
1.256503373676e-01
2.512900161819e-01
3.942864107092e-01
5.313658168345e-01
6.618432392589e-01
7.960423530425e-01
9.410231411808e-01
1.097050611817e+00
1.318552016584e+00
1.557269975613e+00
1.932137802208e+00
2.509695697803e+00
3.129433838283e+00
3.804105330730e+00
4.570891233828e+00
5.562228117083e+00
6.639852836809e+00
7.917982377477e+00
9.087143653069e+00
9.892971124677e+00
9.895797862839e+00
9.463270000500e+00
8.974566355597e+00
8.375439835850e+00
7.795264002412e+00
7.204944492161e+00
6.137869009666e+00
4.346898500459e+00
1.933386662283e+00
4.767353502901e-01
-5.216985503170e-01
-1.369148498795e+00
-2.295586058617e+00
-3.419787140665e+00
-4.495828943340e+00
-5.765111437362e+00
-7.227404350002e+00
-8.798084678631e+00
-9.988715052679e+00
-9.345486827703e+00
-6.473347358952e+00
-3.213329530618e+00
2.198473482063e-01
2.604682457591e+00
4.266059860853e+00
5.945557980554e+00
7.542419432451e+00
9.637905444249e+00
9.355124292881e+00
5.543941164356e+00
-4.272674619338e-01
-6.201303226190e+00
-9.599586550392e+00
-9.974859816497e+00
-9.816828738138e+00
-9.518026184022e+00
-9.107577445680e+00
-8.070431442880e+00
-7.356570177369e+00
-6.490982325441e+00
-5.525625712704e+00
-4.052886761027e+00
-7.984365882214e-01
1.854109574715e+00
4.765968555147e+00
6.257314601622e+00
7.476825547110e+00
8.553765175491e+00
9.560619468184e+00
9.852655811626e+00
6.940672908200e+00
1.419175535692e+00
-1.616923053202e+00
-4.979181208684e+00
-7.623614003419e+00
-9.056749995752e+00
-9.738672208838e+00
-9.962124434057e+00
-9.943319340973e+00
-8.961442354895e+00
-4.699121080771e+00
1.400305664073e+00
6.923252825858e+00
9.754561824438e+00
9.459100560080e+00
5.801226060977e+00
-1.033502236940e-01
-5.940871576395e+00
-9.518007569642e+00
-9.481049350910e+00
-5.837779062268e+00
5.758824482658e-02
5.888524996665e+00
9.531862436605e+00
9.480056515162e+00
5.838771571058e+00
-6.563500331464e-02
-5.885941096157e+00
-8.139648501890e+00
-8.867694887326e+00
-9.505349565762e+00
-9.852906188406e+00
-9.990475948202e+00
-9.980624730877e+00
-9.991390020436e+00
-9.952334474953e+00
-9.959000568163e+00
-9.928051940277e+00
-9.926392388963e+00
-9.893141119546e+00
-9.877881164755e+00
-9.811995356739e+00
-9.716274448690e+00
-9.406866387015e+00
-8.538623622435e+00
-5.743031178638e+00
1.451628165033e-01
5.983741746329e+00
9.542822211842e+00
9.465963188323e+00
5.744924385532e+00
-1.484786779743e-01
-5.974745297864e+00
-8.060599498692e+00
-9.133134369256e+00
-9.790591411038e+00
-9.959973736312e+00
-9.997001206225e+00
-9.978945460292e+00
-9.915598790390e+00
-9.790021590433e+00
-9.569363912848e+00
-9.281920627309e+00
-8.516356108450e+00
-6.256864874866e+00
-4.808615780130e-01
5.460186922289e+00
9.336218934232e+00
9.648280526196e+00
6.258071494366e+00
4.796544982838e-01
-5.455577149364e+00
-9.343709655444e+00
-9.985782205835e+00
-9.352346984118e+00
-8.270420541754e+00
-6.838122507768e+00
-4.588020672580e+00
7.252499236422e-01
6.431437391723e+00
9.699197488492e+00
9.261970873466e+00
5.269157338679e+00
-7.276718746980e-01
-6.429652172264e+00
-9.701994937189e+00
-9.259571056188e+00
-5.271557384447e+00
7.300717710194e-01
6.435159035860e+00
9.696077151074e+00
9.259557484392e+00
5.271570339736e+00
-7.300851604124e-01
-6.431145637806e+00
-9.698541866131e+00
-9.258508860924e+00
-5.272619458508e+00
7.311341327944e-01
6.440652687432e+00
9.691670781694e+00
9.260247686296e+00
5.270880114426e+00
-7.293951305263e-01
-6.436071969626e+00
-9.697279411652e+00
-9.259950906989e+00
-5.271177356121e+00
-3.677212899408e-04
</dep>
<dep tran.v(output) time>
-1.676168529972e-21
1.008381547562e-05
2.038039813686e-05
4.263871551313e-05
1.143488833403e-04
1.759550308282e-03
2.160104027924e-02
7.297672037052e-02
1.417290511112e-01
2.203380614993e-01
3.342822657903e-01
4.579500717283e-01
6.519105404103e-01
9.489653180245e-01
1.265603789510e+00
1.608746857292e+00
1.997371769117e+00
2.498679860743e+00
3.042880217976e+00
3.688305170212e+00
4.280741046746e+00
4.699210970704e+00
4.806069570686e+00
4.803373497632e+00
4.798749235223e+00
4.648467176012e+00
4.456413263962e+00
4.259745649455e+00
3.904474450935e+00
3.307142467043e+00
2.502401247785e+00
2.314420238130e+00
2.300175209898e+00
2.292415398489e+00
2.286239509059e+00
2.280181670867e+00
2.275481868092e+00
2.270632695903e+00
2.265724422358e+00
2.260650457597e+00
2.255326220200e+00
2.252263294481e+00
3.491806484388e+00
5.135036043246e+00
6.977297829622e+00
8.171206379778e+00
8.997467478122e+00
9.835196541041e+00
1.063264137856e+01
1.168210408846e+01
1.214426192479e+01
1.127388811473e+01
9.271646810549e+00
7.332700943517e+00
6.599514442749e+00
6.592449139002e+00
6.589909502852e+00
6.587444091241e+00
6.633833822025e+00
7.116746456085e+00
7.473725648238e+00
7.901869385435e+00
8.381141324813e+00
9.113347032067e+00
1.073299817237e+01
1.206291598277e+01
1.369583779162e+01
1.444412211813e+01
1.504765172987e+01
1.558520474702e+01
1.608843270506e+01
1.640132158128e+01
1.636825018878e+01
1.513205135473e+01
1.410694268632e+01
1.297235789623e+01
1.208484086310e+01
1.183061140445e+01
1.182331049759e+01
1.181665841099e+01
1.181001821019e+01
1.179758977639e+01
1.198622816073e+01
1.497310350266e+01
1.843304838506e+01
1.983367420574e+01
2.025868142254e+01
2.021785687230e+01
1.887579746001e+01
1.689472736445e+01
1.603830956681e+01
1.590794970284e+01
1.587647651421e+01
1.730106251691e+01
2.022641380695e+01
2.217347074005e+01
2.257105106181e+01
2.252560746057e+01
2.210463475077e+01
2.014779361497e+01
1.935877705342e+01
1.920216331221e+01
1.913525396291e+01
1.912051019538e+01
1.911335546956e+01
1.910749737546e+01
1.910549257466e+01
1.910404019398e+01
1.910320464171e+01
1.910239616829e+01
1.910152429666e+01
1.910068211503e+01
1.909949350469e+01
1.909769803717e+01
1.909459652614e+01
1.908840494740e+01
1.907604487492e+01
1.905142509355e+01
1.950524955417e+01
2.237476193660e+01
2.501488982734e+01
2.546427547893e+01
2.541307531406e+01
2.518721404014e+01
2.323437698408e+01
2.249431568106e+01
2.218604804570e+01
2.203052787021e+01
2.202198308575e+01
2.201756257159e+01
2.201214390548e+01
2.200720934951e+01
2.200210371486e+01
2.199576802187e+01
2.198979812866e+01
2.197787581452e+01
2.195409950720e+01
2.191070086045e+01
2.395825466080e+01
2.654705223572e+01
2.723286892218e+01
2.717815066302e+01
2.712340489045e+01
2.564230224907e+01
2.439994696288e+01
2.437111650703e+01
2.434336182268e+01
2.432540683731e+01
2.430830133154e+01
2.428718726199e+01
2.424512088803e+01
2.624870636668e+01
2.846833256902e+01
2.887117344244e+01
2.881313838150e+01
2.875512054358e+01
2.742230056723e+01
2.629552726646e+01
2.624306238692e+01
2.619091783258e+01
2.613905245500e+01
2.763532590302e+01
2.975762127293e+01
3.043428429432e+01
3.037315488909e+01
3.031204498043e+01
2.917125620551e+01
2.821023850160e+01
2.815310355798e+01
2.809713788070e+01
2.804143950334e+01
2.907234332863e+01
3.102421655542e+01
3.188395565423e+01
3.181992639359e+01
3.175592894220e+01
3.082384945789e+01
2.987121069480e+01
2.967565163737e+01
2.961663999457e+01
2.956471572712e+01
</dep>
<dep tran.i(pr1) time>
-1.676169186223e-26
7.544049814623e-06
7.663830487115e-06
8.715929391556e-06
3.474654671898e-05
9.694402030469e-04
1.152369170339e-02
2.337025523577e-02
2.675533757931e-02
2.928737049693e-02
3.012231140917e-02
3.067803041517e-02
3.067814393953e-02
3.044364252576e-02
2.985984842308e-02
2.914179376772e-02
2.799760804150e-02
2.625360793262e-02
2.361950416902e-02
1.944898052766e-02
1.339464506376e-02
5.170437500936e-03
-3.343325954859e-04
3.438262314148e-04
-6.043326621494e-04
-1.447259627753e-02
-1.001799273224e-02
-1.718507332434e-02
-1.388284166643e-02
-2.141773236701e-02
-1.818409627000e-02
2.832434248834e-03
-4.585509665173e-03
3.561406461259e-03
-4.308555715145e-03
3.759309055749e-03
-4.177160822689e-03
3.859846328737e-03
-4.089990686328e-03
3.943553450924e-03
-4.004202639823e-03
3.998272205404e-03
1.142149845915e-02
2.471881808535e-02
3.599692404893e-02
2.709892365476e-02
3.098565763861e-02
2.381621871359e-02
2.199212259362e-02
8.326640587086e-03
1.391406854594e-03
-1.832982733569e-02
-2.130408503237e-02
-1.714275732304e-02
2.756976701093e-03
-2.754930411604e-03
2.756344424112e-03
-2.753450816336e-03
5.422273795698e-03
9.364466888726e-03
1.083844286434e-02
1.159356994258e-02
1.355417651521e-02
1.392084525102e-02
1.647185355606e-02
2.152373768658e-02
3.637630461333e-02
1.705697026284e-02
2.815445588465e-02
9.960406146604e-03
1.602581831696e-02
-6.964331081122e-03
6.959943192300e-03
-3.105309146312e-02
-1.084903809780e-02
-2.816101943248e-02
-3.775239732871e-03
-7.269483532767e-03
7.270193591925e-03
-7.270455836149e-03
7.270886657800e-03
-7.268069788957e-03
9.394035160625e-03
2.074545847614e-02
2.530439156521e-02
5.983118352788e-03
4.531950631019e-03
-4.537231952554e-03
-2.152128572415e-02
-1.738471739787e-02
7.728760737074e-04
-2.741639361561e-03
2.746310548531e-03
1.183307505389e-02
3.192223164103e-02
5.112083173458e-03
3.734031614101e-03
-3.739149991475e-03
-3.785949966542e-03
-3.450581240828e-02
3.769688291110e-03
-1.599676720131e-02
1.136601553830e-02
-1.176567498180e-02
1.159656921810e-02
-1.165263399528e-02
1.162166239441e-02
-1.161778265207e-02
1.160316683329e-02
-1.159556578821e-02
1.159127010841e-02
-1.158648576031e-02
1.158660176514e-02
-1.158406933974e-02
1.158591727317e-02
-1.158309693605e-02
1.158667890106e-02
-1.158144486196e-02
1.650734433954e-02
1.590083929409e-02
1.969056849327e-02
-9.692710798220e-03
9.687839360481e-03
-1.319124485762e-02
-2.489704445899e-02
-5.858143561196e-03
-1.088920701492e-02
2.669293678171e-03
-2.683824281320e-03
2.677509028029e-03
-2.679352147393e-03
2.679896273790e-03
-2.678248797748e-03
2.680477921987e-03
-2.677572828611e-03
2.681166212291e-03
-2.676286450324e-03
2.683154893532e-03
2.248085057374e-02
1.626632921210e-02
-1.473756608959e-03
1.469188065300e-03
-1.475966608666e-03
-2.709025040306e-02
3.243887228344e-03
-3.253983462891e-03
3.252695396321e-03
-3.249091107349e-03
3.253748615975e-03
-3.248032736252e-03
3.255288375556e-03
2.291442045441e-02
1.003581060189e-02
-8.314482572587e-04
8.262535191648e-04
-8.331143490068e-04
-2.469917501374e-02
3.237911817259e-03
-3.236717574573e-03
3.241207113547e-03
-3.234372470587e-03
2.086046938103e-02
1.148845167307e-02
3.249712388083e-03
-3.254489571930e-03
3.247974766538e-03
-2.487337925663e-02
6.800571723684e-03
-6.816343421404e-03
6.820771875809e-03
-6.814231097678e-03
1.788420587025e-02
1.337742589072e-02
5.076951750766e-03
-5.081739790285e-03
5.075335536844e-03
-2.246442577332e-02
4.625525394644e-03
-7.346178476448e-03
7.350548294994e-03
-7.344223628593e-03
</dep>
<dep tran.i(pr2) time>
-1.676168664379e-26
2.539967337400e-06
2.633159781218e-06
3.246658095979e-06
1.626730751403e-05
4.759430986489e-04
4.678560327039e-03
4.511495919381e-03
3.365930444491e-03
2.555795304895e-03
1.950035704321e-03
1.508754656216e-03
1.139778480038e-03
7.583746119226e-04
5.691923915007e-04
4.119938940382e-04
3.307579135388e-04
2.272747892806e-04
1.826591607233e-04
1.081754067735e-04
7.987280257959e-05
1.642123906151e-05
7.125697272514e-06
-8.266099936649e-06
6.651426810222e-06
-7.137540823765e-06
7.110200956117e-06
-7.122472130416e-06
7.108835262282e-06
-7.115975807354e-06
7.111472863183e-06
-6.853075804059e-06
6.961968549338e-06
-6.885847506924e-06
6.930097174507e-06
-6.883699702892e-06
6.916738516702e-06
-6.883129439819e-06
6.912062003386e-06
-6.877308849698e-06
6.936079285681e-06
-5.386598856658e-06
1.542322737617e-02
3.539244214492e-03
1.761140158526e-03
-1.750093156317e-03
1.760991662435e-03
-1.750123912852e-03
1.759887201484e-03
-1.752678963242e-03
1.754315568358e-03
-1.755008287475e-03
1.755005270263e-03
-1.754993300391e-03
1.755688214731e-03
-1.754858032859e-03
1.755488947140e-03
-1.754079183324e-03
4.421139469311e-03
1.036444006941e-02
9.837134712738e-03
1.259333066973e-02
1.255266583498e-02
1.492038752443e-02
1.546988529904e-02
9.492532296614e-03
-1.062576234603e-03
1.063455622430e-03
-1.062557582112e-03
1.063349566044e-03
-1.062744896914e-03
1.062575689035e-03
-1.064224214949e-03
1.063401835538e-03
-1.063392766071e-03
1.063399849466e-03
-1.063385715959e-03
1.063712058656e-03
-1.063650566951e-03
1.063706018675e-03
-1.063564270439e-03
1.064382462935e-03
1.058096211131e-03
2.907910362384e-02
-5.261932979772e-03
5.261929014611e-03
-5.262708658100e-03
5.261029740786e-03
-5.261827223215e-03
5.261838930465e-03
-5.261806351279e-03
5.262297545252e-03
-5.260743980315e-03
1.983662921232e-02
-4.334360579802e-03
7.089182118601e-03
-7.088800034494e-03
7.086979557521e-03
-7.088728951501e-03
7.088717177626e-03
-7.088667672198e-03
7.088665413539e-03
-7.088517426454e-03
7.088590697441e-03
-7.088563339561e-03
7.088712561204e-03
-7.088699494220e-03
7.089047729914e-03
-7.089098349460e-03
7.089578878209e-03
-7.089522416845e-03
7.090027000080e-03
-7.089840424396e-03
7.090320940192e-03
-7.089906647234e-03
7.090567640700e-03
-7.089622162965e-03
7.091256535434e-03
-2.169533307759e-03
2.798919755266e-02
-9.830254489930e-03
9.829693132875e-03
-9.831277976950e-03
9.829463782633e-03
-9.829483766756e-03
9.829544008271e-03
-9.829570469894e-03
9.829805996218e-03
-9.829736268680e-03
9.829796342588e-03
-9.829668115067e-03
9.829870112754e-03
-9.829511969620e-03
9.830008644900e-03
-9.829318499319e-03
9.830244589379e-03
-9.828812227570e-03
9.831266856796e-03
6.873182793335e-03
7.165695057442e-03
-7.166335507945e-03
7.164759260225e-03
-7.166865057063e-03
7.166343383947e-03
-7.166240948955e-03
7.166255801041e-03
-7.165757769533e-03
7.166690147633e-03
-7.165349853318e-03
7.167169657940e-03
-7.164458953023e-03
2.207633624082e-02
-9.539702471857e-03
9.538947715869e-03
-9.540767960156e-03
9.538637209880e-03
-9.539198951715e-03
9.539352689356e-03
-9.539072729887e-03
9.540371708652e-03
-9.537914497415e-03
2.291277411486e-02
-1.166792882737e-02
1.166686330539e-02
-1.166852544216e-02
1.166654607191e-02
-1.166725105637e-02
1.166733440551e-02
-1.166699473895e-02
1.166825756751e-02
-1.166599434527e-02
2.235637173484e-02
-1.337860776214e-02
1.337717554156e-02
-1.337889507372e-02
1.337686740636e-02
-1.337777128776e-02
1.337779760778e-02
-1.337738842812e-02
1.337863158628e-02
-1.337647996155e-02
</dep>
