<Qucs Dataset 1.0.0>
<indep time 200>
  +0.00000000000000000000e+00
  +5.02512562814070376516e-02
  +1.00502512562814075303e-01
  +1.50753768844221119894e-01
  +2.01005025125628150606e-01
  +2.51256281407035209075e-01
  +3.01507537688442239787e-01
  +3.51758793969849270500e-01
  +4.02010050251256301213e-01
  +4.52261306532663331925e-01
  +5.02512562814070418149e-01
  +5.52763819095477448862e-01
  +6.03015075376884479574e-01
  +6.53266331658291510287e-01
  +7.03517587939698541000e-01
  +7.53768844221105571712e-01
  +8.04020100502512602425e-01
  +8.54271356783919633138e-01
  +9.04522613065326663850e-01
  +9.54773869346733694563e-01
  +1.00502512562814083630e+00
  +1.05527638190954786701e+00
  +1.10552763819095489772e+00
  +1.15577889447236192844e+00
  +1.20603015075376895915e+00
  +1.25628140703517598986e+00
  +1.30653266331658302057e+00
  +1.35678391959799005129e+00
  +1.40703517587939708200e+00
  +1.45728643216080411271e+00
  +1.50753768844221114342e+00
  +1.55778894472361817414e+00
  +1.60804020100502520485e+00
  +1.65829145728643223556e+00
  +1.70854271356783926628e+00
  +1.75879396984924629699e+00
  +1.80904522613065332770e+00
  +1.85929648241206035841e+00
  +1.90954773869346738913e+00
  +1.95979899497487441984e+00
  +2.01005025125628167260e+00
  +2.06030150753768870331e+00
  +2.11055276381909573402e+00
  +2.16080402010050276473e+00
  +2.21105527638190979545e+00
  +2.26130653266331682616e+00
  +2.31155778894472385687e+00
  +2.36180904522613088758e+00
  +2.41206030150753791830e+00
  +2.46231155778894494901e+00
  +2.51256281407035197972e+00
  +2.56281407035175901044e+00
  +2.61306532663316604115e+00
  +2.66331658291457307186e+00
  +2.71356783919598010257e+00
  +2.76381909547738713329e+00
  +2.81407035175879416400e+00
  +2.86432160804020119471e+00
  +2.91457286432160822542e+00
  +2.96482412060301525614e+00
  +3.01507537688442228685e+00
  +3.06532663316582931756e+00
  +3.11557788944723634827e+00
  +3.16582914572864337899e+00
  +3.21608040201005040970e+00
  +3.26633165829145744041e+00
  +3.31658291457286447113e+00
  +3.36683417085427150184e+00
  +3.41708542713567853255e+00
  +3.46733668341708556326e+00
  +3.51758793969849259398e+00
  +3.56783919597989962469e+00
  +3.61809045226130665540e+00
  +3.66834170854271368611e+00
  +3.71859296482412071683e+00
  +3.76884422110552774754e+00
  +3.81909547738693477825e+00
  +3.86934673366834180896e+00
  +3.91959798994974883968e+00
  +3.96984924623115587039e+00
  +4.02010050251256334519e+00
  +4.07035175879397037590e+00
  +4.12060301507537740662e+00
  +4.17085427135678443733e+00
  +4.22110552763819146804e+00
  +4.27135678391959849876e+00
  +4.32160804020100552947e+00
  +4.37185929648241256018e+00
  +4.42211055276381959089e+00
  +4.47236180904522662161e+00
  +4.52261306532663365232e+00
  +4.57286432160804068303e+00
  +4.62311557788944771374e+00
  +4.67336683417085474446e+00
  +4.72361809045226177517e+00
  +4.77386934673366880588e+00
  +4.82412060301507583659e+00
  +4.87437185929648286731e+00
  +4.92462311557788989802e+00
  +4.97487437185929692873e+00
  +5.02512562814070395945e+00
  +5.07537688442211099016e+00
  +5.12562814070351802087e+00
  +5.17587939698492505158e+00
  +5.22613065326633208230e+00
  +5.27638190954773911301e+00
  +5.32663316582914614372e+00
  +5.37688442211055317443e+00
  +5.42713567839196020515e+00
  +5.47738693467336723586e+00
  +5.52763819095477426657e+00
  +5.57788944723618129728e+00
  +5.62814070351758832800e+00
  +5.67839195979899535871e+00
  +5.72864321608040238942e+00
  +5.77889447236180942014e+00
  +5.82914572864321645085e+00
  +5.87939698492462348156e+00
  +5.92964824120603051227e+00
  +5.97989949748743754299e+00
  +6.03015075376884457370e+00
  +6.08040201005025160441e+00
  +6.13065326633165863512e+00
  +6.18090452261306566584e+00
  +6.23115577889447269655e+00
  +6.28140703517587972726e+00
  +6.33165829145728675797e+00
  +6.38190954773869378869e+00
  +6.43216080402010081940e+00
  +6.48241206030150785011e+00
  +6.53266331658291488083e+00
  +6.58291457286432191154e+00
  +6.63316582914572894225e+00
  +6.68341708542713597296e+00
  +6.73366834170854300368e+00
  +6.78391959798995003439e+00
  +6.83417085427135706510e+00
  +6.88442211055276409581e+00
  +6.93467336683417112653e+00
  +6.98492462311557815724e+00
  +7.03517587939698518795e+00
  +7.08542713567839221867e+00
  +7.13567839195979924938e+00
  +7.18592964824120628009e+00
  +7.23618090452261331080e+00
  +7.28643216080402034152e+00
  +7.33668341708542737223e+00
  +7.38693467336683440294e+00
  +7.43718592964824143365e+00
  +7.48743718592964846437e+00
  +7.53768844221105549508e+00
  +7.58793969849246252579e+00
  +7.63819095477386955650e+00
  +7.68844221105527658722e+00
  +7.73869346733668361793e+00
  +7.78894472361809064864e+00
  +7.83919597989949767936e+00
  +7.88944723618090471007e+00
  +7.93969849246231174078e+00
  +7.98994974874371877149e+00
  +8.04020100502512669038e+00
  +8.09045226130653283292e+00
  +8.14070351758794075181e+00
  +8.19095477386934689434e+00
  +8.24120603015075481323e+00
  +8.29145728643216095577e+00
  +8.34170854271356887466e+00
  +8.39195979899497501719e+00
  +8.44221105527638293609e+00
  +8.49246231155778907862e+00
  +8.54271356783919699751e+00
  +8.59296482412060314005e+00
  +8.64321608040201105894e+00
  +8.69346733668341720147e+00
  +8.74371859296482512036e+00
  +8.79396984924623126290e+00
  +8.84422110552763918179e+00
  +8.89447236180904532432e+00
  +8.94472361809045324321e+00
  +8.99497487437185938575e+00
  +9.04522613065326730464e+00
  +9.09547738693467344717e+00
  +9.14572864321608136606e+00
  +9.19597989949748750860e+00
  +9.24623115577889542749e+00
  +9.29648241206030157002e+00
  +9.34673366834170948891e+00
  +9.39698492462311563145e+00
  +9.44723618090452355034e+00
  +9.49748743718592969287e+00
  +9.54773869346733761176e+00
  +9.59798994974874375430e+00
  +9.64824120603015167319e+00
  +9.69849246231155781572e+00
  +9.74874371859296573462e+00
  +9.79899497487437187715e+00
  +9.84924623115577979604e+00
  +9.89949748743718593857e+00
  +9.94974874371859385747e+00
  +1.00000000000000000000e+01
</indep>
<dep V1.It time>
  +0.00000000000000000000e+00
  +2.96962906861380257857e-12
  -3.95366567508638583002e-12
  +2.64798098380138947821e-12
  -1.68610889822282245377e-10
  +2.33446236308481374604e-12
  -4.59370039881880570128e-08
  +2.02997130018801357496e-12
  -8.26434828220479417507e-06
  +1.71711115176790751452e-12
  -8.42649892106101666700e-04
  +1.42452849462087045930e-12
  -4.33994723705400861635e-02
  +1.12893973086329011551e-12
  -1.02363535899672730700e+00
  +8.08322643040749618990e-13
  -1.02209285294918341691e+01
  +4.75415543871056408572e-13
  -4.08004600043830834011e+01
  +1.57061329172950188991e-13
  -6.29097051895725201121e+01
  -1.43749192954907580785e-13
  -3.70656044109089179983e+01
  -4.51875791203676838573e-13
  -8.45550151096756508196e+00
  -7.82008681470671898599e-13
  -7.74792548013085280445e-01
  -1.06103849820373452006e-12
  -3.02638461790246497685e-02
  -1.36183976879928171740e-12
  -5.46235781930227981551e-04
  -1.74217972513601546990e-12
  -5.03403933463592370701e-06
  -2.04612919174437259540e-12
  -2.66124546532167801766e-08
  -2.35025259400747782796e-12
  -8.80714813899858880242e-11
  -2.65843707330315575746e-12
  +3.20981718818845432663e-12
  -2.89117905765461595652e-12
  +3.00822997026884797619e-12
  -3.52943388485085842490e-12
  +2.78906424266787050719e-12
  -1.96076172715848871521e-11
  +2.49218267584625415195e-12
  -5.05576982755830807794e-09
  +2.14802866710840668470e-12
  -1.10091801429912315691e-06
  +1.83853818114377789218e-12
  -1.42961540162253077091e-04
  +1.49412812513685673343e-12
  -9.80042729213892460649e-03
  +1.27833203929734859413e-12
  -3.19276474178217528621e-01
  +8.47932077520210904675e-13
  -4.53270238636281330713e+00
  +5.01167102448884274703e-13
  -2.62518469559077054498e+01
  +1.58867182878829593844e-13
  -5.93749573869559839068e+01
  +9.97656159864273208828e-14
  -5.13892429946995079604e+01
  -1.24872708039220138878e-13
  -1.70815300761270130181e+01
  -3.71755458001355043982e-13
  -2.24111343953337982526e+00
  -7.15580047474725526136e-13
  -1.22073423779384918064e-01
  -1.12477518515002272130e-12
  -2.96777878315526710828e-03
  -1.50218140262842492840e-12
  -3.53216776711873367209e-05
  -1.77749883298682521602e-12
  -2.29775008513270500470e-07
  -1.98994964028027178514e-12
  -9.21570874309549057691e-10
  -2.24064530346472461688e-12
  +1.41597928021940604165e-12
  -2.41761699336390863583e-12
  +2.78827968276365441771e-12
  -2.78174915540863983747e-12
  +3.33186683987255938921e-12
  -4.65812909057257323238e-12
  +2.98090078945922655730e-12
  -5.26115375426870704464e-10
  +2.63559483159675492363e-12
  -1.34979722545627184202e-07
  +1.66854043394883964350e-12
  -2.18939113438568677336e-05
  +1.89225676911733141144e-12
  -1.96434904348839062260e-03
  +1.50635121255670209150e-12
  -8.71707323352185203813e-02
  +1.11503279134650207035e-12
  -1.74105794472812491769e+00
  +8.14121332535300468070e-13
  -1.45279079787063380991e+01
  +5.90226788922219290723e-13
  -4.80423749948677780708e+01
  +3.49825902124106503582e-13
  -6.11165619570101981139e+01
  +1.25590709276541049709e-14
  -2.97307972445091230895e+01
  -3.99378949462130714405e-13
  -5.63054966067571172061e+00
  -7.89207110150103043846e-13
  -4.32677912573857847978e-01
  -1.07896944026988322051e-12
  -1.43801737128317341785e-02
  -1.29681981632195774251e-12
  -2.24966654785056091592e-04
  -1.53999884902836615104e-12
  -1.83710354769441540617e-06
  -1.78339576184026634204e-12
  -8.82148354719194135079e-09
  -2.74324339422207867213e-12
  -2.49536099139418399109e-11
  -3.04959415604275319947e-12
  +3.01194730042227647136e-12
  -3.40382658469505810495e-12
  +2.70039580778403702801e-12
  -3.90195833562033294695e-12
  +2.36362969352455261228e-12
  -5.55263064785717940520e-11
  +2.00654908780253973975e-12
  -1.53625269305549001194e-08
  +1.68536207689133714754e-12
  -3.04935861974523218960e-06
  +1.39081200586258902596e-12
  -3.51712608341192209394e-04
  +1.07722940214563653602e-12
  -2.09413205004412850130e-02
  +7.62028995522678910442e-13
  -5.81453372387532141374e-01
  +4.59667691971879025477e-13
  -6.93136891695452561635e+00
  +1.55034321794699026313e-13
  -3.33539887675916446597e+01
  -1.67850533426821950161e-13
  -6.23061702358360989251e+01
  -4.94812511806871341817e-13
  -4.44855850778415700120e+01
  -8.07409695934215759717e-13
  -1.22419733805810366789e+01
  -3.58490969108048817772e-13
  -1.34080086154452771119e+00
  -7.01162714852684388930e-13
  -6.17512895068598743897e-02
  -1.72719101131292656606e-12
  -1.29104702650403857511e-03
  -1.29312209689274010186e-12
  -1.34904978332247931470e-05
  -1.56835609039696801323e-12
  -7.89129635830469878643e-08
  -1.87109179545715566685e-12
  -2.90058597973668575699e-10
  -2.20731520783460803726e-12
  +2.37779156019053778331e-12
  -2.56045681613791968962e-12
  +2.76153741398410266109e-12
  -2.84943454940867421526e-12
  +2.34521175747519934926e-12
  -7.99246496734061943569e-12
  +1.96062163245593291579e-12
  -1.63970057384180673995e-09
  +2.85335671044585405609e-12
  -3.89306247824924674052e-07
  +1.28996647776049273738e-12
  -5.66409791999370089421e-05
  +2.20766513730922949510e-12
  -4.45180367021649758819e-03
  +1.90119195522974543453e-12
  -1.69574628729233761737e-01
  +1.60893045207346022782e-12
  -2.85949141703139053661e+00
  +1.30683018584611790096e-12
  -1.98977959842580993666e+01
  -2.80380639456080227837e-13
  -5.44446577335728605362e+01
  -5.70604234103361775839e-13
  -5.71304142045466036848e+01
  -8.67507671229991150086e-13
  -2.29626059638610975355e+01
  -2.45314738749597881306e-14
  -3.61627728493420441680e+00
  -1.46478933528001190761e-12
  -2.33643858263536507991e-01
  -6.79399522928267430714e-13
  -6.62961331769887363130e-03
  -2.05935229277161256481e-12
  -9.02693077480167666016e-05
  -1.31144220390825267049e-12
  -6.56319365414276842483e-07
  -1.60114718074502167177e-12
  -2.87637161773177919566e-09
  -1.89619500249876589453e-12
  -5.56881138605041845309e-12
  -3.36195861215996369196e-12
  +3.84196259072102252257e-12
  -2.56829609361806089445e-12
</dep>
<dep _net0.Vt time>
  +0.00000000000000000000e+00
  -7.88525454074772008672e-02
  +1.57214042967252221050e-01
  -2.34596502792372568758e-01
  +3.10518031874171596129e-01
  -3.84505835032019127606e-01
  +4.56099159207023041596e-01
  -5.24852162764474217127e-01
  +5.90336691936533153324e-01
  -6.52144947115200990240e-01
  +7.09892022391345522969e-01
  -7.63218302525179415063e-01
  +8.11791702421030048065e-01
  -8.55309735160419526423e-01
  +8.93501395714880297660e-01
  -9.26128848607846055785e-01
  +9.52988909015842766692e-01
  -9.73914308085546576166e-01
  +9.88774734587008263809e-01
  -9.97477646416341401370e-01
  +9.99968846894155993787e-01
  -9.96232822271003626291e-01
  +9.86292838337997079812e-01
  -9.70210795540978332419e-01
  +9.48086843500499432125e-01
  -9.20058757338162447326e-01
  +8.86301079693194937548e-01
  -8.47024033772283635457e-01
  +8.02472214201561451219e-01
  -7.52923063833359607067e-01
  +6.98685145993288236888e-01
  -6.40096222927088343013e-01
  +5.77521152413569494044e-01
  -5.11349615642258559234e-01
  +4.41993690505508962652e-01
  -3.69885285416475140252e-01
  +2.95473449634597373770e-01
  -2.19221576847618088157e-01
  +1.41604519424878338985e-01
  -6.31056313126008155967e-02
  -1.57862420137088836636e-02
  +9.45798077949155102662e-02
  -1.72784385474168328267e-01
  +2.49912962370374969190e-01
  -3.25485226510275782452e-01
  +3.99030557732402146875e-01
  -4.70090958436060968317e-01
  +5.38223905724343087975e-01
  -6.03005107179665267303e-01
  +6.64031143110477950486e-01
  -7.20921978814758945830e-01
  +7.73323331215377440806e-01
  -8.20908875129296444761e-01
  +8.63382275431252788067e-01
  -9.00479032456776629090e-01
  +9.31968129152455304620e-01
  -9.57653469715945449003e-01
  +9.77375100766718629686e-01
  -9.91010207442799218036e-01
  +9.98473878220381694248e-01
  -9.99719633693476827929e-01
  +9.94739716020651809636e-01
  -9.83565137236361075601e-01
  +9.66265486126009487400e-01
  -9.42948494867421493915e-01
  +9.13759368137418093170e-01
  -8.78879878861384744582e-01
  +8.38527236237353590376e-01
  -7.92952733082683325350e-01
  +7.42440180929255233444e-01
  -6.87304142609072243886e-01
  +6.27887973340827576507e-01
  -5.64561682511792395367e-01
  +4.97719629475650571226e-01
  -4.27778067710073928165e-01
  +3.55172552633395310906e-01
  -2.80355229216872281484e-01
  +2.03792016290119504252e-01
  -1.25959705067572758086e-01
  +4.73429899715267984983e-02
  +3.15685497649543164722e-02
  -1.10283498911529970199e-01
  +1.88311666489857115758e-01
  -2.65167138398923973863e-01
  +3.40371303404244207602e-01
  -4.13455833652363824449e-01
  +4.83965601142959167547e-01
  -5.51461512003316167707e-01
  +6.15523240908286028983e-01
  -6.75751848623791673276e-01
  +7.31772266367167745216e-01
  -7.83235631519043407067e-01
  +8.29821460135799160440e-01
  -8.71239642738579345149e-01
  +9.07232250945535723119e-01
  -9.37575143700909219291e-01
  +9.62079363094497597153e-01
  -9.80592311082451151272e-01
  +9.92998699778684379424e-01
  -9.99221269401284972744e-01
  +9.99221269401270761890e-01
  -9.92998699778641857883e-01
  +9.80592311082380430065e-01
  -9.62079363094399120371e-01
  +9.37575143700783764089e-01
  -9.07232250945383955631e-01
  +8.71239642738402264577e-01
  -8.29821460135597877006e-01
  +7.83235631518819142016e-01
  -7.31772266366921830816e-01
  +6.75751848623525774862e-01
  -6.15523240908001700866e-01
  +5.51461512003015297267e-01
  -4.83965601142643531141e-01
  +4.13455833652035420478e-01
  -3.40371303403905034468e-01
  +2.65167138398576196501e-01
  -1.88311666489502871347e-01
  +1.10283498911171465307e-01
  -3.15685497645937923616e-02
  -4.73429899716599836279e-02
  +1.25959705067930610722e-01
  -2.03792016290250038724e-01
  +2.80355229217218560045e-01
  -3.55172552633519933440e-01
  +4.27778067710399945156e-01
  -4.97719629475766256466e-01
  +5.64561682512090157182e-01
  -6.27887973340931382360e-01
  +6.87304142609334256520e-01
  -7.42440180929344495375e-01
  +7.92952733082903038486e-01
  -8.38527236237550099851e-01
  +8.78879878861448360361e-01
  -9.13759368137472272053e-01
  +9.42948494867503650418e-01
  -9.66265486126102413067e-01
  +9.83565137236364628315e-01
  -9.94739716020665465379e-01
  +9.99719633693482601089e-01
  -9.98473878220361821256e-01
  +9.91010207442796553501e-01
  -9.77375100766690430021e-01
  +9.57653469715874283708e-01
  -9.31968129152324520348e-01
  +9.00479032456768080372e-01
  -8.63382275431185508552e-01
  +8.20908875129155446437e-01
  -7.73323331215148734863e-01
  +7.20921978814745401110e-01
  -6.64031143110378252459e-01
  +6.03005107179468202716e-01
  -5.38223905724038997889e-01
  +4.70090958436043648838e-01
  -3.99030557732279855809e-01
  +3.25485226510042191528e-01
  -2.49912962370025720782e-01
  +1.72784385474148982631e-01
  -9.45798077947827831036e-02
  +1.57862420134618972045e-02
  +6.31056313129607915346e-02
  -1.41604519424897795643e-01
  +2.19221576848191879172e-01
  -2.95473449634833351674e-01
  +3.69885285416810261072e-01
  -4.41993690505526615198e-01
  +5.11349615642763932755e-01
  -5.77521152413724703223e-01
  +6.40096222927321822915e-01
  -6.98685145993261591535e-01
  +7.52923063833709216297e-01
  -8.02472214201674916012e-01
  +8.47024033772445172907e-01
  -8.86301079693177618068e-01
  +9.20058757338370614143e-01
  -9.48086843500559939280e-01
  +9.70210795541051940205e-01
  -9.86292838337990973585e-01
  +9.96232822271049700547e-01
  -9.99968846894157548100e-01
  +9.97477646416319863043e-01
  -9.88774734587013814924e-01
  +9.73914308085426116968e-01
  -9.52988909015793805857e-01
  +9.26128848607742138910e-01
  -8.93501395714909718571e-01
  +8.55309735160159068101e-01
  -8.11791702420935568085e-01
  +7.63218302525001446313e-01
  -7.09892022391391708247e-01
  +6.52144947114819850675e-01
  -5.90336691936414026394e-01
  +5.24852162764251839455e-01
  -4.56099159207094095869e-01
  +3.84505835031568099502e-01
  -3.10518031874038147322e-01
  +2.34596502792125544135e-01
  -1.57214042967341594004e-01
  +7.88525454070025111353e-02
  +1.33330704958900742055e-13
</dep>
