<Qucs Dataset 24.2.1>
<indep time 207>
0.000000000000e+00
5.025130000000e-04
1.005026000000e-03
2.010052000000e-03
4.020104000000e-03
8.040208000000e-03
1.608041600000e-02
3.216083200000e-02
6.432166400000e-02
1.145729640000e-01
1.648242640000e-01
2.150755640000e-01
2.653268640000e-01
3.155781640000e-01
3.658294640000e-01
4.160807640000e-01
4.663320640000e-01
5.165833640000e-01
5.668346640000e-01
6.170859640000e-01
6.673372640000e-01
7.175885640000e-01
7.678398640000e-01
8.180911640000e-01
8.683424640000e-01
9.185937640000e-01
9.688450640000e-01
1.019096364000e+00
1.069347664000e+00
1.119598964000e+00
1.169850264000e+00
1.220101564000e+00
1.270352864000e+00
1.320604164000e+00
1.370855464000e+00
1.421106764000e+00
1.471358064000e+00
1.521609364000e+00
1.571860664000e+00
1.622111964000e+00
1.672363264000e+00
1.722614564000e+00
1.772865864000e+00
1.823117164000e+00
1.873368464000e+00
1.923619764000e+00
1.973871064000e+00
2.024122364000e+00
2.074373664000e+00
2.124624964000e+00
2.174876264000e+00
2.225127564000e+00
2.275378864000e+00
2.325630164000e+00
2.375881464000e+00
2.426132764000e+00
2.476384064000e+00
2.526635364000e+00
2.576886664000e+00
2.627137964000e+00
2.677389264000e+00
2.727640564000e+00
2.777891864000e+00
2.828143164000e+00
2.878394464000e+00
2.928645764000e+00
2.978897064000e+00
3.029148364000e+00
3.079399664000e+00
3.129650964000e+00
3.179902264000e+00
3.230153564000e+00
3.280404864000e+00
3.330656164000e+00
3.380907464000e+00
3.431158764000e+00
3.481410064000e+00
3.531661364000e+00
3.581912664000e+00
3.632163964000e+00
3.682415264000e+00
3.732666564000e+00
3.782917864000e+00
3.833169164000e+00
3.883420464000e+00
3.933671764000e+00
3.983923064000e+00
4.034174364000e+00
4.084425664000e+00
4.134676964000e+00
4.184928264000e+00
4.235179564000e+00
4.285430864000e+00
4.335682164000e+00
4.385933464000e+00
4.436184764000e+00
4.486436064000e+00
4.536687364000e+00
4.586938664000e+00
4.637189964000e+00
4.687441264000e+00
4.737692564000e+00
4.787943864000e+00
4.838195164000e+00
4.888446464000e+00
4.938697764000e+00
4.988949064000e+00
5.039200364000e+00
5.089451664000e+00
5.139702964000e+00
5.189954264000e+00
5.240205564000e+00
5.290456864000e+00
5.340708164000e+00
5.390959464000e+00
5.441210764000e+00
5.491462064000e+00
5.541713364000e+00
5.591964664000e+00
5.642215964000e+00
5.692467264000e+00
5.742718564000e+00
5.792969864000e+00
5.843221164000e+00
5.893472464000e+00
5.943723764000e+00
5.993975064000e+00
6.044226364000e+00
6.094477664000e+00
6.144728964000e+00
6.194980264000e+00
6.245231564000e+00
6.295482864000e+00
6.345734164000e+00
6.395985464000e+00
6.446236764000e+00
6.496488064000e+00
6.546739364000e+00
6.596990664000e+00
6.647241964000e+00
6.697493264000e+00
6.747744564000e+00
6.797995864000e+00
6.848247164000e+00
6.898498464000e+00
6.948749764000e+00
6.999001064000e+00
7.049252364000e+00
7.099503664000e+00
7.149754964000e+00
7.200006264000e+00
7.250257564000e+00
7.300508864000e+00
7.350760164000e+00
7.401011464000e+00
7.451262764000e+00
7.501514064000e+00
7.551765364000e+00
7.602016664000e+00
7.652267964000e+00
7.702519264000e+00
7.752770564000e+00
7.803021864000e+00
7.853273164000e+00
7.903524464000e+00
7.953775764000e+00
8.004027064000e+00
8.054278364000e+00
8.104529664000e+00
8.154780964000e+00
8.205032264000e+00
8.255283564000e+00
8.305534864000e+00
8.355786164000e+00
8.406037464000e+00
8.456288764000e+00
8.506540064000e+00
8.556791364000e+00
8.607042664000e+00
8.657293964000e+00
8.707545264000e+00
8.757796564000e+00
8.808047864000e+00
8.858299164000e+00
8.908550464000e+00
8.958801764000e+00
9.009053064000e+00
9.059304364000e+00
9.109555664000e+00
9.159806964000e+00
9.210058264000e+00
9.260309564000e+00
9.310560864000e+00
9.360812164000e+00
9.411063464000e+00
9.461314764000e+00
9.511566064000e+00
9.561817364000e+00
9.612068664000e+00
9.662319964000e+00
9.712571264000e+00
9.762822564000e+00
9.813073864000e+00
9.863325164000e+00
9.913576464000e+00
9.963827764000e+00
1.000000000000e+01
</indep>
<dep tran.v(vin1) time>
0.000000000000e+00
1.578688526123e-02
3.157361314213e-02
6.314596725110e-02
1.262818625381e-01
2.524831590021e-01
5.043220977788e-01
1.003500292073e+00
1.966163616895e+00
3.296484147503e+00
4.300897140543e+00
4.880101112792e+00
4.976832952434e+00
4.581529247586e+00
3.733271774855e+00
2.515923671994e+00
1.049838292701e+00
-5.200395507776e-01
-2.038503584316e+00
-3.355430569968e+00
-4.340622268689e+00
-4.896677514205e+00
-4.968621798008e+00
-4.549342334678e+00
-3.680291268785e+00
-2.447387500656e+00
-9.725222978216e-01
5.984915085345e-01
2.110335337098e+00
3.413540457758e+00
4.379265246283e+00
4.912033136212e+00
4.959171927912e+00
4.516021235700e+00
3.626393237765e+00
2.378241176771e+00
8.949638456453e-01
-6.767942577503e-01
-2.181640967032e+00
-3.470799323630e+00
-4.416816439335e+00
-4.926164150539e+00
-4.948485698073e+00
-4.481574257857e+00
-3.571591118991e+00
-2.308501939050e+00
-8.171822720917e-01
7.549282769469e-01
2.252402697076e+00
3.527192892507e+00
4.453266486041e+00
4.939067034215e+00
4.936565772648e+00
4.446009989046e+00
3.515898575051e+00
2.238187174021e+00
7.391969687059e-01
-8.328740867116e-01
-2.322602885786e+00
-3.582707105040e+00
-4.488606299125e+00
-4.950738570452e+00
-4.923415123369e+00
-4.409337295714e+00
-3.459329490527e+00
-2.167314411697e+00
-6.610273778244e-01
9.106122545540e-01
2.392224031714e+00
3.637328121106e+00
4.522827068100e+00
4.961175849446e+00
4.909037028792e+00
4.371565320645e+00
3.401897968526e+00
2.095901321204e+00
5.826929877282e-01
-9.881233997501e-01
-2.461248777772e+00
-3.691042323268e+00
-4.555920261464e+00
-4.970376269103e+00
-4.893435073488e+00
-4.332703480684e+00
-3.343618327170e+00
-2.023965706374e+00
-5.042133277838e-01
1.065388198175e+00
2.529659915560e+00
3.743836320159e+00
4.587877628829e+00
4.978337535687e+00
4.876613147144e+00
4.292761464385e+00
3.284505096021e+00
1.951525501310e+00
4.256079635747e-01
-1.142387387119e+00
-2.597440389655e+00
-3.795696949831e+00
-4.618691202978e+00
-4.985057664394e+00
-4.858575443596e+00
-4.251749229603e+00
-3.224573012463e+00
-1.878598765914e+00
-3.468964920234e-01
1.219101770092e+00
2.664573301861e+00
3.846611283029e+00
4.648353301849e+00
4.990534979844e+00
4.839326459782e+00
4.209677001002e+00
3.163837018026e+00
1.805203681381e+00
2.680985365057e-01
-1.295512221607e+00
-2.731041915428e+00
-3.896566626417e+00
-4.676856530453e+00
-4.994768116500e+00
-4.818870994621e+00
-4.166555267513e+00
-3.102312254661e+00
-1.731358545672e+00
-1.892337419587e-01
1.371599691951e+00
2.796829659219e+00
3.945550525745e+00
4.704193782715e+00
4.997756019008e+00
4.797214147820e+00
4.122394779716e+00
3.040014060965e+00
1.657081768946e+00
1.103217699829e-01
-1.447345211932e+00
-2.861920131842e+00
-3.993550768949e+00
-4.730358243248e+00
-4.999497942460e+00
-4.774361318597e+00
-4.077206547161e+00
-2.976957968357e+00
-1.582391868978e+00
-3.138229394038e-02
1.522729897607e+00
2.926297105741e+00
4.040555389198e+00
4.755343389051e+00
4.999993452583e+00
4.750318204337e+00
4.031001835622e+00
2.913159697208e+00
1.507307466533e+00
-4.756500594959e-02
-1.597734954995e+00
-2.989944531241e+00
-4.086552667879e+00
-4.779142991133e+00
-4.999242425842e+00
-4.725090799175e+00
-3.983792164289e+00
-2.848635152917e+00
-1.431847280732e+00
1.265004475174e-01
1.672341684757e+00
3.052846540548e+00
4.131531137517e+00
4.801751116072e+00
4.997245049473e+00
4.698685392496e+00
3.935589302897e+00
2.783400421949e+00
1.356030124379e+00
-2.054043515493e-01
-1.746531486862e+00
-3.114987451709e+00
-4.175479584632e+00
-4.823162127487e+00
-4.994001821438e+00
-4.671108567373e+00
-3.886405268791e+00
-2.717471767827e+00
-1.279874899276e+00
2.842570466950e-01
1.820285865219e+00
3.176351772514e+00
4.218387052537e+00
4.843370687449e+00
4.989513550299e+00
4.642367198919e+00
3.836252323929e+00
2.650865627070e+00
1.203400591506e+00
-3.630388743703e-01
-1.893586432295e+00
-3.236924204366e+00
-4.260242844072e+00
-4.862371757807e+00
-4.983781355015e+00
-4.612468452580e+00
-3.785142971825e+00
-2.583598605102e+00
-1.126626266704e+00
-1.224646799147e-14
</dep>
<dep tran.v(vin2) time>
3.000000000000e+00
3.000000000000e+00
3.000000000000e+00
3.000000000000e+00
3.000000000000e+00
3.000000000000e+00
3.000000000000e+00
3.000000000000e+00
3.000000000000e+00
3.000000000000e+00
3.000000000000e+00
3.000000000000e+00
3.000000000000e+00
3.000000000000e+00
3.000000000000e+00
3.000000000000e+00
3.000000000000e+00
3.000000000000e+00
3.000000000000e+00
3.000000000000e+00
3.000000000000e+00
3.000000000000e+00
3.000000000000e+00
3.000000000000e+00
3.000000000000e+00
3.000000000000e+00
3.000000000000e+00
3.000000000000e+00
3.000000000000e+00
3.000000000000e+00
3.000000000000e+00
3.000000000000e+00
3.000000000000e+00
3.000000000000e+00
3.000000000000e+00
3.000000000000e+00
3.000000000000e+00
3.000000000000e+00
3.000000000000e+00
3.000000000000e+00
3.000000000000e+00
3.000000000000e+00
3.000000000000e+00
3.000000000000e+00
3.000000000000e+00
3.000000000000e+00
3.000000000000e+00
3.000000000000e+00
3.000000000000e+00
3.000000000000e+00
3.000000000000e+00
3.000000000000e+00
3.000000000000e+00
3.000000000000e+00
3.000000000000e+00
3.000000000000e+00
3.000000000000e+00
3.000000000000e+00
3.000000000000e+00
3.000000000000e+00
3.000000000000e+00
3.000000000000e+00
3.000000000000e+00
3.000000000000e+00
3.000000000000e+00
3.000000000000e+00
3.000000000000e+00
3.000000000000e+00
3.000000000000e+00
3.000000000000e+00
3.000000000000e+00
3.000000000000e+00
3.000000000000e+00
3.000000000000e+00
3.000000000000e+00
3.000000000000e+00
3.000000000000e+00
3.000000000000e+00
3.000000000000e+00
3.000000000000e+00
3.000000000000e+00
3.000000000000e+00
3.000000000000e+00
3.000000000000e+00
3.000000000000e+00
3.000000000000e+00
3.000000000000e+00
3.000000000000e+00
3.000000000000e+00
3.000000000000e+00
3.000000000000e+00
3.000000000000e+00
3.000000000000e+00
3.000000000000e+00
3.000000000000e+00
3.000000000000e+00
3.000000000000e+00
3.000000000000e+00
3.000000000000e+00
3.000000000000e+00
3.000000000000e+00
3.000000000000e+00
3.000000000000e+00
3.000000000000e+00
3.000000000000e+00
3.000000000000e+00
3.000000000000e+00
3.000000000000e+00
3.000000000000e+00
3.000000000000e+00
3.000000000000e+00
3.000000000000e+00
3.000000000000e+00
3.000000000000e+00
3.000000000000e+00
3.000000000000e+00
3.000000000000e+00
3.000000000000e+00
3.000000000000e+00
3.000000000000e+00
3.000000000000e+00
3.000000000000e+00
3.000000000000e+00
3.000000000000e+00
3.000000000000e+00
3.000000000000e+00
3.000000000000e+00
3.000000000000e+00
3.000000000000e+00
3.000000000000e+00
3.000000000000e+00
3.000000000000e+00
3.000000000000e+00
3.000000000000e+00
3.000000000000e+00
3.000000000000e+00
3.000000000000e+00
3.000000000000e+00
3.000000000000e+00
3.000000000000e+00
3.000000000000e+00
3.000000000000e+00
3.000000000000e+00
3.000000000000e+00
3.000000000000e+00
3.000000000000e+00
3.000000000000e+00
3.000000000000e+00
3.000000000000e+00
3.000000000000e+00
3.000000000000e+00
3.000000000000e+00
3.000000000000e+00
3.000000000000e+00
3.000000000000e+00
3.000000000000e+00
3.000000000000e+00
3.000000000000e+00
3.000000000000e+00
3.000000000000e+00
3.000000000000e+00
3.000000000000e+00
3.000000000000e+00
3.000000000000e+00
3.000000000000e+00
3.000000000000e+00
3.000000000000e+00
3.000000000000e+00
3.000000000000e+00
3.000000000000e+00
3.000000000000e+00
3.000000000000e+00
3.000000000000e+00
3.000000000000e+00
3.000000000000e+00
3.000000000000e+00
3.000000000000e+00
3.000000000000e+00
3.000000000000e+00
3.000000000000e+00
3.000000000000e+00
3.000000000000e+00
3.000000000000e+00
3.000000000000e+00
3.000000000000e+00
3.000000000000e+00
3.000000000000e+00
3.000000000000e+00
3.000000000000e+00
3.000000000000e+00
3.000000000000e+00
3.000000000000e+00
3.000000000000e+00
3.000000000000e+00
3.000000000000e+00
3.000000000000e+00
3.000000000000e+00
3.000000000000e+00
3.000000000000e+00
3.000000000000e+00
3.000000000000e+00
3.000000000000e+00
3.000000000000e+00
3.000000000000e+00
3.000000000000e+00
3.000000000000e+00
3.000000000000e+00
</dep>
<dep tran.v(vout) time>
-1.000000000000e+01
-1.000000000000e+01
-1.000000000000e+01
-1.000000000000e+01
-1.000000000000e+01
-1.000000000000e+01
-1.000000000000e+01
-1.000000000000e+01
-1.000000000000e+01
1.000000000000e+01
1.000000000000e+01
1.000000000000e+01
1.000000000000e+01
1.000000000000e+01
1.000000000000e+01
-1.000000000000e+01
-1.000000000000e+01
-1.000000000000e+01
-1.000000000000e+01
-1.000000000000e+01
-1.000000000000e+01
-1.000000000000e+01
-1.000000000000e+01
-1.000000000000e+01
-1.000000000000e+01
-1.000000000000e+01
-1.000000000000e+01
-1.000000000000e+01
-1.000000000000e+01
1.000000000000e+01
1.000000000000e+01
1.000000000000e+01
1.000000000000e+01
1.000000000000e+01
1.000000000000e+01
-1.000000000000e+01
-1.000000000000e+01
-1.000000000000e+01
-1.000000000000e+01
-1.000000000000e+01
-1.000000000000e+01
-1.000000000000e+01
-1.000000000000e+01
-1.000000000000e+01
-1.000000000000e+01
-1.000000000000e+01
-1.000000000000e+01
-1.000000000000e+01
-1.000000000000e+01
1.000000000000e+01
1.000000000000e+01
1.000000000000e+01
1.000000000000e+01
1.000000000000e+01
1.000000000000e+01
-1.000000000000e+01
-1.000000000000e+01
-1.000000000000e+01
-1.000000000000e+01
-1.000000000000e+01
-1.000000000000e+01
-1.000000000000e+01
-1.000000000000e+01
-1.000000000000e+01
-1.000000000000e+01
-1.000000000000e+01
-1.000000000000e+01
-1.000000000000e+01
-1.000000000000e+01
1.000000000000e+01
1.000000000000e+01
1.000000000000e+01
1.000000000000e+01
1.000000000000e+01
1.000000000000e+01
-1.000000000000e+01
-1.000000000000e+01
-1.000000000000e+01
-1.000000000000e+01
-1.000000000000e+01
-1.000000000000e+01
-1.000000000000e+01
-1.000000000000e+01
-1.000000000000e+01
-1.000000000000e+01
-1.000000000000e+01
-1.000000000000e+01
-1.000000000000e+01
-1.000000000000e+01
1.000000000000e+01
1.000000000000e+01
1.000000000000e+01
1.000000000000e+01
1.000000000000e+01
1.000000000000e+01
-1.000000000000e+01
-1.000000000000e+01
-1.000000000000e+01
-1.000000000000e+01
-1.000000000000e+01
-1.000000000000e+01
-1.000000000000e+01
-1.000000000000e+01
-1.000000000000e+01
-1.000000000000e+01
-1.000000000000e+01
-1.000000000000e+01
-1.000000000000e+01
-1.000000000000e+01
1.000000000000e+01
1.000000000000e+01
1.000000000000e+01
1.000000000000e+01
1.000000000000e+01
1.000000000000e+01
-1.000000000000e+01
-1.000000000000e+01
-1.000000000000e+01
-1.000000000000e+01
-1.000000000000e+01
-1.000000000000e+01
-1.000000000000e+01
-1.000000000000e+01
-1.000000000000e+01
-1.000000000000e+01
-1.000000000000e+01
-1.000000000000e+01
-1.000000000000e+01
-1.000000000000e+01
1.000000000000e+01
1.000000000000e+01
1.000000000000e+01
1.000000000000e+01
1.000000000000e+01
1.000000000000e+01
-1.000000000000e+01
-1.000000000000e+01
-1.000000000000e+01
-1.000000000000e+01
-1.000000000000e+01
-1.000000000000e+01
-1.000000000000e+01
-1.000000000000e+01
-1.000000000000e+01
-1.000000000000e+01
-1.000000000000e+01
-1.000000000000e+01
-1.000000000000e+01
-1.000000000000e+01
1.000000000000e+01
1.000000000000e+01
1.000000000000e+01
1.000000000000e+01
1.000000000000e+01
-1.000000000000e+01
-1.000000000000e+01
-1.000000000000e+01
-1.000000000000e+01
-1.000000000000e+01
-1.000000000000e+01
-1.000000000000e+01
-1.000000000000e+01
-1.000000000000e+01
-1.000000000000e+01
-1.000000000000e+01
-1.000000000000e+01
-1.000000000000e+01
-1.000000000000e+01
1.000000000000e+01
1.000000000000e+01
1.000000000000e+01
1.000000000000e+01
1.000000000000e+01
1.000000000000e+01
-1.000000000000e+01
-1.000000000000e+01
-1.000000000000e+01
-1.000000000000e+01
-1.000000000000e+01
-1.000000000000e+01
-1.000000000000e+01
-1.000000000000e+01
-1.000000000000e+01
-1.000000000000e+01
-1.000000000000e+01
-1.000000000000e+01
-1.000000000000e+01
-1.000000000000e+01
1.000000000000e+01
1.000000000000e+01
1.000000000000e+01
1.000000000000e+01
1.000000000000e+01
1.000000000000e+01
-1.000000000000e+01
-1.000000000000e+01
-1.000000000000e+01
-1.000000000000e+01
-1.000000000000e+01
-1.000000000000e+01
-1.000000000000e+01
-1.000000000000e+01
-1.000000000000e+01
-1.000000000000e+01
-1.000000000000e+01
-1.000000000000e+01
-1.000000000000e+01
</dep>
